* T-Spice 13.00 Simulation	Wed Apr 10 09:30:32 2019	C:\Users\i140420\Desktop\Kamran_VLSI_10_10-4\Andy.spc
* Command line: tspice -o C:\Users\i140420\Desktop\Kamran_VLSI_10_10-4\Andy.out C:\Users\i140420\Desktop\Kamran_VLSI_10_10-4\Andy.spc 
* T-Spice Win32 13.00.20080321.01:01:33

*SEDIT: Alter blocks = 0

* Accuracy and Convergence options:
* numndset|dchold = 100
* 
* Timestep and Integration options:
*  relq|relchgtol = 0.0005
* 
* Model Evaluation options:
*            dcap = 2                    defnrb = 0 [sq]               defnrd = 0 [sq]
*          defnrs = 0 [sq]                 tnom = 25 [deg C]
* 
* General options:
*            temp = 25 [deg C]          threads = 4
* 
* Output options:
*           acout = 1                    ingold = 0
* 


*  Device and node counts:
*             MOSFETs - 8                 MOSFET geometries - 12      
*                BJTs - 0                             JFETs - 0       
*             MESFETs - 0                            Diodes - 0       
*          Capacitors - 0                         Resistors - 0       
*           Inductors - 0                  Mutual inductors - 0       
*  Transmission lines - 0        Coupled transmission lines - 0       
*     Voltage sources - 3                   Current sources - 0       
*                VCVS - 0                              VCCS - 0       
*                CCVS - 0                              CCCS - 0       
*    V-control switch - 0                  I-control switch - 0       
*       Macro devices - 0        External C model instances - 0       
*         HDL devices - 0       
*         Subcircuits - 0              Subcircuit instances - 0       
*   Independent nodes - 6                    Boundary nodes - 4       
*         Total nodes - 10      


*SEDIT: Alter=0
*SEDIT: Analysis types DCOP 1 ACMODEL 1 AC 0 TRANSIENT 1 TRANSFER 0 NOISE 0 

* BEGIN NON-GRAPHICAL DATA

DC ANALYSIS - temperature=25.0  
v(2) =   5.0000e+000
v(5) =   8.6348e-005
v(6) =   5.0000e+000
v(9) =   1.2500e+000
v(10) =   3.1250e+000
v(A) =   0.0000e+000
v(B) =   0.0000e+000
v(Vdd) =   5.0000e+000
v(Y) =   5.8970e-006
i1(v1) =  -0.0000e+000
i2(v1) =   0.0000e+000
i1(v2) =   8.7499e-012
i2(v2) =  -8.7499e-012
i1(v4) =  -1.0122e-008
i2(v4) =   1.0122e-008

* END NON-GRAPHICAL DATA

* BEGIN NON-GRAPHICAL DATA

AC SMALL-SIGNAL MODELS - temperature=25.0  

              0             1             2             3          
              M1            M2            M3            M4           
MODEL         PMOS          PMOS          PMOS          PMOS         
TYPE          PMOS          PMOS          PMOS          PMOS         
REGION        Cutoff        Cutoff        Linear        Linear       
ID              -3.32304n   6.001e-098      -3.39745n     -3.39047n
IBS              0.            0.            0.            0.      
IBD              0.            0.            0.            0.      
VGS             -7.70185u      4.99999      -4.99991      -5.00000 
VDS             -4.99999      86.34811u     -7.70185u     -7.68598u
VBS             -1.87499       3.12501      -1.87499      -1.87499 
VTH           -208.18903m     -1.12640    -208.18905m   -208.18905m
VDSAT          -32.47525m    -43.69382m     -3.11047      -3.11054 
BETA           186.28016u    128.92774u    126.93662u    126.93591u
RS               0.            0.            0.            0.      
RD               0.            0.            0.            0.      
GM              70.23730n      -2e-096     244.67553p    244.16155p
GDS            126.69849p   -6.94e-094     441.12035u    441.12309u
GMB              5.60281n   -5.06e-097     172.94162p    172.58553p
GBD              0.            0.            0.            0.      
GBS              0.            0.            0.            0.      
CDTOT           12.77383f     10.97557f     48.77879f     44.80707f
CGTOT           12.24786f     21.31674f     20.95427f     20.95427f
CSTOT           41.74992f     12.80652f     42.28554f     46.02364f
CBTOT           52.54520f     38.61840f     80.19514f     79.96152f
CGS              9.21573f      1.65464f     10.37761f     10.37760f
CGD              1.65464f      1.51650f     10.16660f     10.16660f
CGB              1.37749f     18.14559f    410.06228a    410.06231a
CBD             11.11919f      9.32093f     38.51938f     34.54765f
CBS             40.03805f     11.15188f     40.03805f     43.77616f

              4             5             6             7          
              M5            M6            M7            M8           
MODEL         NMOS          NMOS          NMOS          NMOS         
TYPE          NMOS          NMOS          NMOS          NMOS         
REGION        Linear        Cutoff        Cutoff        Cutoff       
ID               3.33242n      3.38682n      4.37467p      3.37984n
IBS              0.            0.            0.            0.      
IBD              0.            0.            0.            0.      
VGS              4.99999      86.34811u      0.            0.      
VDS              5.89705u      4.99999      86.34811u      4.99999 
VBS              1.25001       1.25001       1.25001       1.25001 
VTH            217.06830m    181.79435m    217.06774m    181.79435m
VDSAT            3.19667      31.73505m     31.54268m     31.73437m
BETA           141.22539u    283.41540u    287.92455u    283.41532u
RS               0.            0.            0.            0.      
RD               0.            0.            0.            0.      
GM            -364.59321p     80.92416n    105.96966p     80.76104n
GDS            565.09858u    728.59236p     50.58630n    727.11883p
GMB             77.19245p      7.12452n     10.13515p      7.11098n
GBD              0.            0.            0.            0.      
GBS              0.            0.            0.            0.      
CDTOT           22.23903f      6.79478f     15.69758f      6.23436f
CGTOT           10.83892f      5.29308f      5.41250f      5.29333f
CSTOT           14.89042f     14.55343f     16.59006f     16.16760f
CBTOT           32.05675f     21.01781f     31.99930f     22.07168f
CGS              5.35254f      3.55993f      3.62925f      3.56010f
CGD              5.08527f    678.57050a    697.03608a    678.57122a
CGB            401.10532a      1.05458f      1.08622f      1.05465f
CBD             17.06877f      6.11609f     15.00021f      5.55567f
CBS             13.84032f     13.84032f     15.90857f     15.45456f


* VOLTAGE SOURCES

              8             9             10         
              v1            v2            v4           
VOLTAGE          0.            0.            5.00000 
CURRENT          0.            8.74987p    -10.12158n
POWER            0.            0.          -50.60790n


Element name cross-reference:
      0 : M1
      1 : M2
      2 : M3
      3 : M4
      4 : M5
      5 : M6
      6 : M7
      7 : M8
      8 : v1
      9 : v2
     10 : v4

* END NON-GRAPHICAL DATA

*WEDIT: .tran   1e-008   1e-007
TRANSIENT ANALYSIS
Time<s>        v(A,Gnd)<V>  v(B,Gnd)<V>  v(Y,Gnd)<V>
 0.000000e+000  0.0000e+000  0.0000e+000  5.8970e-006
 6.250000e-010  3.1250e+000  0.0000e+000 -2.6166e-002
 9.375000e-010  4.6875e+000  0.0000e+000 -9.4570e-003
 1.000000e-009  5.0000e+000  0.0000e+000 -3.8713e-003
 1.112309e-009  5.0000e+000  0.0000e+000 -5.4673e-003
 1.635425e-009  5.0000e+000  0.0000e+000 -6.8132e-004
 5.000000e-009  5.0000e+000  0.0000e+000  7.1361e-004
 5.999999e-009  5.0000e+000  5.0000e+000  4.4423e+000
 6.500000e-009  5.0000e+000  5.0000e+000  4.8768e+000
 6.900879e-009  5.0000e+000  5.0000e+000  4.9696e+000
 8.342169e-009  5.0000e+000  5.0000e+000  5.0212e+000
 1.100000e-008  5.0000e+000  5.0000e+000  4.9822e+000
 1.200000e-008  0.0000e+000  5.0000e+000  5.0222e+000
 1.250000e-008  0.0000e+000  5.0000e+000  5.0156e+000
 1.393091e-008  0.0000e+000  5.0000e+000  5.0017e+000
 1.600000e-008  0.0000e+000  5.0000e+000  4.9983e+000
 1.700000e-008  0.0000e+000  8.8818e-015  4.9638e+000
 1.731500e-008  0.0000e+000  0.0000e+000  4.9946e+000
 2.000000e-008  0.0000e+000  0.0000e+000  4.9999e+000
 2.250000e-008  5.0000e+000  0.0000e+000  1.4547e-001
 2.375000e-008  5.0000e+000  0.0000e+000  1.0877e-002
 2.666481e-008  5.0000e+000  0.0000e+000 -9.1864e-003
 3.100000e-008  5.0000e+000  0.0000e+000  8.1618e-003
 3.350000e-008  0.0000e+000  0.0000e+000  7.8059e-003
 3.475000e-008  0.0000e+000  0.0000e+000  1.2698e-003
 3.500000e-008  0.0000e+000  0.0000e+000  1.6413e-005
 3.693422e-008  0.0000e+000  5.0000e+000  1.1111e-002
 3.754350e-008  0.0000e+000  5.0000e+000  1.0783e-004
 4.000000e-008  0.0000e+000  5.0000e+000 -2.1891e-004
 4.100000e-008  5.0000e+000  5.0000e+000  4.4085e+000
 4.150000e-008  5.0000e+000  5.0000e+000  4.8718e+000
 4.194895e-008  5.0000e+000  5.0000e+000  4.9719e+000
 4.369825e-008  5.0000e+000  5.0000e+000  5.0212e+000
 4.600000e-008  5.0000e+000  5.0000e+000  4.9826e+000
 4.850000e-008  5.0000e+000  0.0000e+000  1.4341e-001
 4.975000e-008  5.0000e+000  0.0000e+000  1.1647e-002
 5.100000e-008  5.0000e+000  0.0000e+000 -7.8462e-003
 5.350000e-008  0.0000e+000  0.0000e+000  7.0042e-003
 5.475000e-008  0.0000e+000  0.0000e+000  1.1927e-003
 6.000000e-008  3.3087e-014  0.0000e+000 -1.1024e-003
 6.100000e-008  5.0000e+000  0.0000e+000 -1.7293e-002
 6.150000e-008  5.0000e+000  0.0000e+000 -5.0563e-003
 6.204502e-008  5.0000e+000  0.0000e+000 -4.6082e-004
 6.500000e-008  5.0000e+000  0.0000e+000  5.0880e-004
 6.600000e-008  5.0000e+000  5.0000e+000  4.4423e+000
 6.650000e-008  5.0000e+000  5.0000e+000  4.8768e+000
 6.690094e-008  5.0000e+000  5.0000e+000  4.9696e+000
 6.834261e-008  5.0000e+000  5.0000e+000  5.0212e+000
 7.100000e-008  5.0000e+000  5.0000e+000  4.9822e+000
 7.350000e-008  0.0000e+000  5.0000e+000  5.0114e+000
 7.475000e-008  0.0000e+000  5.0000e+000  5.0030e+000
 7.600000e-008  0.0000e+000  5.0000e+000  4.9978e+000
 7.700000e-008  0.0000e+000  0.0000e+000  4.9637e+000
 7.731500e-008  0.0000e+000  0.0000e+000  4.9946e+000
 8.000000e-008  0.0000e+000  0.0000e+000  4.9999e+000
 8.100000e-008  5.0000e+000  0.0000e+000  3.8719e-001
 8.150000e-008  5.0000e+000  0.0000e+000  6.5789e-002
 8.205326e-008  5.0000e+000  0.0000e+000  1.3297e-002
 8.509470e-008  5.0000e+000  0.0000e+000 -1.1139e-002
 9.100000e-008  5.0000e+000  0.0000e+000  1.0053e-002
 9.200000e-008  0.0000e+000  0.0000e+000  1.7537e-002
 9.250000e-008  0.0000e+000  0.0000e+000  6.8947e-003
 9.427165e-008  0.0000e+000  0.0000e+000  4.1038e-004
 9.500000e-008  0.0000e+000  0.0000e+000 -2.7699e-004
 9.600000e-008  0.0000e+000  5.0000e+000  2.1524e-002
 9.631500e-008  0.0000e+000  5.0000e+000  7.8886e-004
 9.946500e-008  0.0000e+000  5.0000e+000 -6.1378e-005
 1.000000e-007  3.3087e-014  5.0000e+000  1.4568e-005
*

* Parsing                      0.01 seconds
* Setup                        0.00 seconds
* DC operating point           0.09 seconds
* Transient Analysis           0.01 seconds
* Overhead                     0.75 seconds
* -----------------------------------------
* Total                        0.86 seconds

* Simulation completed

* End of T-Spice output file
