* T-Spice 13.00 Simulation	Tue Apr 23 16:56:30 2019	C:\Users\i140420\Desktop\Kamran_VLSI_12_19-4\Xor\Cell0.sp
* Command line: tspice -o C:\Users\i140420\Desktop\Kamran_VLSI_12_19-4\Xor\Cell0.out C:\Users\i140420\Desktop\Kamran_VLSI_12_19-4\Xor\Cell0.sp 
* T-Spice Win32 13.00.20080321.01:01:33
* Warning : Node N_3 is attached to only one device (MM2)
* Warning : Node N_5 is attached to only one device (MM3)
* Warning : Node N_7 is attached to only one device (MM4)
* Warning : Node N_9 is attached to only one device (MM5)
* Warning : Node N_11 is attached to only one device (MM6)
*
* Warning : Disabling printout of duplicate warning messages.
*         : 	Use '.options maxmsg=0' to view all warnings,
*         : 	or increase maxmsg from 5 to view more messages.
*

*SEDIT: Alter blocks = 0

* Accuracy and Convergence options:
* numndset|dchold = 100
* 
* Timestep and Integration options:
*  relq|relchgtol = 0.0005
* 
* Model Evaluation options:
*            dcap = 2                    defnrb = 0 [sq]               defnrd = 0 [sq]
*          defnrs = 0 [sq]                 tnom = 25 [deg C]
* 
* General options:
*            temp = 25 [deg C]          threads = 4
* 
* Output options:
*           acout = 1                    ingold = 0
* 


*  Device and node counts:
*             MOSFETs - 7                 MOSFET geometries - 4       
*                BJTs - 0                             JFETs - 0       
*             MESFETs - 0                            Diodes - 0       
*          Capacitors - 0                         Resistors - 0       
*           Inductors - 0                  Mutual inductors - 0       
*  Transmission lines - 0        Coupled transmission lines - 0       
*     Voltage sources - 7                   Current sources - 0       
*                VCVS - 0                              VCCS - 0       
*                CCVS - 0                              CCCS - 0       
*    V-control switch - 0                  I-control switch - 0       
*       Macro devices - 0        External C model instances - 0       
*         HDL devices - 0       
*         Subcircuits - 0              Subcircuit instances - 0       
*   Independent nodes - 13                   Boundary nodes - 8       
*         Total nodes - 21      

* *** 6 WARNING MESSAGES GENERATED DURING SETUP


*SEDIT: Alter=0
*SEDIT: Analysis types DCOP 0 ACMODEL 0 AC 0 TRANSIENT 1 TRANSFER 0 NOISE 0 

*WEDIT: .tran   1e-009   1e-007
TRANSIENT ANALYSIS
Time<s>            v(A)<V>      v(B)<V>      v(C)<V>      v(D)<V>      v(E)<V>      v(F)<V>  v(in6NOR)<V>
 0.000000e+000  0.0000e+000  0.0000e+000  0.0000e+000  0.0000e+000  0.0000e+000  0.0000e+000  5.0000e+000
 6.250000e-011  3.1250e-001  3.1250e-001  3.1250e-001  3.1250e-001  3.1250e-001  3.1250e-001  5.0197e+000
 1.525000e-010  7.6250e-001  7.6250e-001  7.6250e-001  7.6250e-001  7.6250e-001  7.6250e-001  5.0229e+000
 2.425000e-010  1.2125e+000  1.2125e+000  1.2125e+000  1.2125e+000  1.2125e+000  1.2125e+000  5.0209e+000
 2.875000e-010  1.4375e+000  1.4375e+000  1.4375e+000  1.4375e+000  1.4375e+000  1.4375e+000  5.0141e+000
 3.334561e-010  1.6673e+000  1.6673e+000  1.6673e+000  1.6673e+000  1.6673e+000  1.6673e+000  4.9807e+000
 3.605034e-010  1.8025e+000  1.8025e+000  1.8025e+000  1.8025e+000  1.8025e+000  1.8025e+000  4.9500e+000
 3.931855e-010  1.9659e+000  1.9659e+000  1.9659e+000  1.9659e+000  1.9659e+000  1.9659e+000  4.9110e+000
 4.140471e-010  2.0702e+000  2.0702e+000  2.0702e+000  2.0702e+000  2.0702e+000  2.0702e+000  4.8188e+000
 4.314559e-010  2.1573e+000  2.1573e+000  2.1573e+000  2.1573e+000  2.1573e+000  2.1573e+000  4.6572e+000
 4.570969e-010  2.2855e+000  2.2855e+000  2.2855e+000  2.2855e+000  2.2855e+000  2.2855e+000  4.5016e+000
 5.115377e-010  2.5577e+000  2.5577e+000  2.5577e+000  2.5577e+000  2.5577e+000  2.5577e+000  4.3835e+000
 5.952323e-010  2.9762e+000  2.9762e+000  2.9762e+000  2.9762e+000  2.9762e+000  2.9762e+000  4.1860e+000
 7.074716e-010  3.5374e+000  3.5374e+000  3.5374e+000  3.5374e+000  3.5374e+000  3.5374e+000  3.9220e+000
 8.423106e-010  4.2116e+000  4.2116e+000  4.2116e+000  4.2116e+000  4.2116e+000  4.2116e+000  3.6297e+000
 9.995768e-010  4.9979e+000  4.9979e+000  4.9979e+000  4.9979e+000  4.9979e+000  4.9979e+000  3.3663e+000
 1.000000e-009  5.0000e+000  5.0000e+000  5.0000e+000  5.0000e+000  5.0000e+000  5.0000e+000  3.3659e+000
 1.004231e-009  5.0000e+000  5.0000e+000  5.0000e+000  5.0000e+000  5.0000e+000  5.0000e+000  3.3536e+000
 1.046551e-009  5.0000e+000  5.0000e+000  5.0000e+000  5.0000e+000  5.0000e+000  5.0000e+000  3.3070e+000
 1.469744e-009  5.0000e+000  5.0000e+000  5.0000e+000  5.0000e+000  5.0000e+000  5.0000e+000  3.2592e+000
 2.943781e-009  5.0000e+000  5.0000e+000  5.0000e+000  5.0000e+000  5.0000e+000  5.0000e+000  3.3003e+000
 4.943781e-009  5.0000e+000  5.0000e+000  5.0000e+000  5.0000e+000  5.0000e+000  5.0000e+000  3.2615e+000
 6.943781e-009  5.0000e+000  5.0000e+000  5.0000e+000  5.0000e+000  5.0000e+000  5.0000e+000  3.2985e+000
 8.943781e-009  5.0000e+000  5.0000e+000  5.0000e+000  5.0000e+000  5.0000e+000  5.0000e+000  3.2632e+000
 1.094378e-008  5.0000e+000  5.0000e+000  5.0000e+000  5.0000e+000  5.0000e+000  5.0000e+000  3.2969e+000
 1.294378e-008  5.0000e+000  5.0000e+000  5.0000e+000  5.0000e+000  5.0000e+000  5.0000e+000  3.2648e+000
 1.494378e-008  5.0000e+000  5.0000e+000  5.0000e+000  5.0000e+000  5.0000e+000  5.0000e+000  3.2954e+000
 1.694378e-008  5.0000e+000  5.0000e+000  5.0000e+000  5.0000e+000  5.0000e+000  5.0000e+000  3.2662e+000
 1.894378e-008  5.0000e+000  5.0000e+000  5.0000e+000  5.0000e+000  5.0000e+000  5.0000e+000  3.2940e+000
 2.094378e-008  5.0000e+000  5.0000e+000  5.0000e+000  5.0000e+000  5.0000e+000  5.0000e+000  3.2675e+000
 2.100000e-008  5.0000e+000  5.0000e+000  5.0000e+000  5.0000e+000  5.0000e+000  5.0000e+000  3.2814e+000
 2.125000e-008  5.0000e+000  3.7500e+000  5.0000e+000  3.7500e+000  3.7500e+000  3.7500e+000  3.4539e+000
 2.156500e-008  5.0000e+000  2.1750e+000  5.0000e+000  2.1750e+000  2.1750e+000  2.1750e+000  4.2478e+000
 2.172250e-008  5.0000e+000  1.3875e+000  5.0000e+000  1.3875e+000  1.3875e+000  1.3875e+000  4.6406e+000
 2.185412e-008  5.0000e+000  7.2938e-001  5.0000e+000  7.2938e-001  7.2938e-001  7.2938e-001  4.8972e+000
 2.195164e-008  5.0000e+000  2.4178e-001  5.0000e+000  2.4178e-001  2.4178e-001  2.4178e-001  4.9754e+000
 2.200000e-008  5.0000e+000  0.0000e+000  5.0000e+000  0.0000e+000  0.0000e+000  0.0000e+000  4.9818e+000
 2.205910e-008  5.0000e+000  0.0000e+000  5.0000e+000  0.0000e+000  0.0000e+000  0.0000e+000  4.9915e+000
 2.265018e-008  5.0000e+000  0.0000e+000  5.0000e+000  0.0000e+000  0.0000e+000  0.0000e+000  4.9987e+000
 2.294572e-008  5.0000e+000  0.0000e+000  5.0000e+000  0.0000e+000  0.0000e+000  0.0000e+000  4.9996e+000
 2.480295e-008  5.0000e+000  0.0000e+000  5.0000e+000  0.0000e+000  0.0000e+000  0.0000e+000  4.9998e+000
 2.680295e-008  5.0000e+000  0.0000e+000  5.0000e+000  0.0000e+000  0.0000e+000  0.0000e+000  5.0001e+000
 2.880295e-008  5.0000e+000  0.0000e+000  5.0000e+000  0.0000e+000  0.0000e+000  0.0000e+000  4.9998e+000
 3.080295e-008  5.0000e+000  0.0000e+000  5.0000e+000  0.0000e+000  0.0000e+000  0.0000e+000  5.0001e+000
 3.100000e-008  5.0000e+000  0.0000e+000  5.0000e+000  0.0000e+000  0.0000e+000  0.0000e+000  4.9999e+000
 3.125000e-008  3.7500e+000  0.0000e+000  3.7500e+000  0.0000e+000  0.0000e+000  0.0000e+000  4.9771e+000
 3.137500e-008  3.1250e+000  0.0000e+000  3.1250e+000  0.0000e+000  0.0000e+000  0.0000e+000  4.9709e+000
 3.161125e-008  1.9438e+000  0.0000e+000  1.9438e+000  0.0000e+000  0.0000e+000  0.0000e+000  4.9698e+000
 3.176456e-008  1.1772e+000  0.0000e+000  1.1772e+000  0.0000e+000  0.0000e+000  0.0000e+000  4.9718e+000
 3.185122e-008  7.4387e-001  0.0000e+000  7.4387e-001  0.0000e+000  0.0000e+000  0.0000e+000  4.9730e+000
 3.192809e-008  3.5950e-001  0.0000e+000  3.5950e-001  0.0000e+000  0.0000e+000  0.0000e+000  4.9735e+000
 3.200000e-008  0.0000e+000  0.0000e+000  0.0000e+000  0.0000e+000  0.0000e+000  0.0000e+000  4.9751e+000
 3.207176e-008  0.0000e+000  0.0000e+000  0.0000e+000  0.0000e+000  0.0000e+000  0.0000e+000  4.9932e+000
 3.241573e-008  0.0000e+000  0.0000e+000  0.0000e+000  0.0000e+000  0.0000e+000  0.0000e+000  4.9986e+000
 3.258772e-008  0.0000e+000  0.0000e+000  0.0000e+000  0.0000e+000  0.0000e+000  0.0000e+000  4.9992e+000
 3.311148e-008  0.0000e+000  0.0000e+000  0.0000e+000  0.0000e+000  0.0000e+000  0.0000e+000  4.9991e+000
 3.337336e-008  0.0000e+000  0.0000e+000  0.0000e+000  0.0000e+000  0.0000e+000  0.0000e+000  4.9994e+000
 3.469647e-008  0.0000e+000  0.0000e+000  0.0000e+000  0.0000e+000  0.0000e+000  0.0000e+000  4.9996e+000
 3.669647e-008  0.0000e+000  0.0000e+000  0.0000e+000  0.0000e+000  0.0000e+000  0.0000e+000  4.9999e+000
 3.869647e-008  0.0000e+000  0.0000e+000  0.0000e+000  0.0000e+000  0.0000e+000  0.0000e+000  4.9998e+000
 4.000000e-008  0.0000e+000  0.0000e+000  0.0000e+000  0.0000e+000  0.0000e+000  0.0000e+000  5.0000e+000
 4.025000e-008  0.0000e+000  1.2500e+000  0.0000e+000  0.0000e+000  1.2500e+000  0.0000e+000  5.0039e+000
 4.037500e-008  0.0000e+000  1.8750e+000  0.0000e+000  0.0000e+000  1.8750e+000  0.0000e+000  5.0049e+000
 4.049312e-008  0.0000e+000  2.4656e+000  0.0000e+000  0.0000e+000  2.4656e+000  0.0000e+000  5.0049e+000
 4.061449e-008  0.0000e+000  3.0725e+000  0.0000e+000  0.0000e+000  3.0725e+000  0.0000e+000  5.0048e+000
 4.075182e-008  0.0000e+000  3.7591e+000  0.0000e+000  0.0000e+000  3.7591e+000  0.0000e+000  5.0047e+000
 4.090163e-008  0.0000e+000  4.5082e+000  0.0000e+000  0.0000e+000  4.5082e+000  0.0000e+000  5.0046e+000
 4.100000e-008  0.0000e+000  5.0000e+000  0.0000e+000  0.0000e+000  5.0000e+000  0.0000e+000  5.0046e+000
 4.114798e-008  0.0000e+000  5.0000e+000  0.0000e+000  0.0000e+000  5.0000e+000  0.0000e+000  5.0003e+000
 4.262787e-008  0.0000e+000  5.0000e+000  0.0000e+000  0.0000e+000  5.0000e+000  0.0000e+000  5.0000e+000
 4.462787e-008  0.0000e+000  5.0000e+000  0.0000e+000  0.0000e+000  5.0000e+000  0.0000e+000  5.0000e+000
 4.662787e-008  0.0000e+000  5.0000e+000  0.0000e+000  0.0000e+000  5.0000e+000  0.0000e+000  5.0000e+000
 4.862787e-008  0.0000e+000  5.0000e+000  0.0000e+000  0.0000e+000  5.0000e+000  0.0000e+000  5.0000e+000
 5.000000e-008  0.0000e+000  5.0000e+000  0.0000e+000  0.0000e+000  5.0000e+000  0.0000e+000  5.0000e+000
 5.025000e-008  0.0000e+000  5.0000e+000  1.2500e+000  0.0000e+000  5.0000e+000  1.2500e+000  5.0009e+000
 5.037500e-008  0.0000e+000  5.0000e+000  1.8750e+000  0.0000e+000  5.0000e+000  1.8750e+000  4.9992e+000
 5.043750e-008  0.0000e+000  5.0000e+000  2.1875e+000  0.0000e+000  5.0000e+000  2.1875e+000  4.9984e+000
 5.051634e-008  0.0000e+000  5.0000e+000  2.5817e+000  0.0000e+000  5.0000e+000  2.5817e+000  5.0016e+000
 5.061781e-008  0.0000e+000  5.0000e+000  3.0891e+000  0.0000e+000  5.0000e+000  3.0891e+000  5.0042e+000
 5.074371e-008  0.0000e+000  5.0000e+000  3.7186e+000  0.0000e+000  5.0000e+000  3.7186e+000  5.0027e+000
 5.089759e-008  0.0000e+000  5.0000e+000  4.4880e+000  0.0000e+000  5.0000e+000  4.4880e+000  5.0036e+000
 5.100000e-008  0.0000e+000  5.0000e+000  5.0000e+000  0.0000e+000  5.0000e+000  5.0000e+000  5.0030e+000
 5.116092e-008  0.0000e+000  5.0000e+000  5.0000e+000  0.0000e+000  5.0000e+000  5.0000e+000  5.0002e+000
 5.277015e-008  0.0000e+000  5.0000e+000  5.0000e+000  0.0000e+000  5.0000e+000  5.0000e+000  5.0000e+000
 5.477015e-008  0.0000e+000  5.0000e+000  5.0000e+000  0.0000e+000  5.0000e+000  5.0000e+000  5.0000e+000
 5.677015e-008  0.0000e+000  5.0000e+000  5.0000e+000  0.0000e+000  5.0000e+000  5.0000e+000  5.0000e+000
 5.877015e-008  0.0000e+000  5.0000e+000  5.0000e+000  0.0000e+000  5.0000e+000  5.0000e+000  5.0000e+000
 6.000000e-008  0.0000e+000  5.0000e+000  5.0000e+000  0.0000e+000  5.0000e+000  5.0000e+000  5.0000e+000
 6.025000e-008  1.2500e+000  5.0000e+000  5.0000e+000  0.0000e+000  5.0000e+000  5.0000e+000  5.0153e+000
 6.034000e-008  1.7000e+000  5.0000e+000  5.0000e+000  0.0000e+000  5.0000e+000  5.0000e+000  5.0161e+000
 6.044710e-008  2.2355e+000  5.0000e+000  5.0000e+000  0.0000e+000  5.0000e+000  5.0000e+000  5.0165e+000
 6.055713e-008  2.7857e+000  5.0000e+000  5.0000e+000  0.0000e+000  5.0000e+000  5.0000e+000  5.0143e+000
 6.068165e-008  3.4083e+000  5.0000e+000  5.0000e+000  0.0000e+000  5.0000e+000  5.0000e+000  4.9941e+000
 6.082815e-008  4.1408e+000  5.0000e+000  5.0000e+000  0.0000e+000  5.0000e+000  5.0000e+000  4.9174e+000
 6.100000e-008  5.0000e+000  5.0000e+000  5.0000e+000  0.0000e+000  5.0000e+000  5.0000e+000  4.9187e+000
 6.119634e-008  5.0000e+000  4.0183e+000  5.0000e+000  0.0000e+000  4.0183e+000  5.0000e+000  4.9731e+000
 6.151134e-008  5.0000e+000  2.4433e+000  5.0000e+000  0.0000e+000  2.4433e+000  5.0000e+000  4.9812e+000
 6.176449e-008  5.0000e+000  1.1775e+000  5.0000e+000  0.0000e+000  1.1775e+000  5.0000e+000  4.9826e+000
 6.194136e-008  5.0000e+000  2.9319e-001  5.0000e+000  0.0000e+000  2.9319e-001  5.0000e+000  4.9825e+000
 6.200000e-008  5.0000e+000  0.0000e+000  5.0000e+000  0.0000e+000  0.0000e+000  5.0000e+000  4.9826e+000
 6.206508e-008  5.0000e+000  0.0000e+000  5.0000e+000  0.0000e+000  0.0000e+000  5.0000e+000  4.9919e+000
 6.271597e-008  5.0000e+000  0.0000e+000  5.0000e+000  0.0000e+000  0.0000e+000  5.0000e+000  4.9987e+000
 6.471597e-008  5.0000e+000  0.0000e+000  5.0000e+000  0.0000e+000  0.0000e+000  5.0000e+000  5.0002e+000
 6.671597e-008  5.0000e+000  0.0000e+000  5.0000e+000  0.0000e+000  0.0000e+000  5.0000e+000  4.9998e+000
 6.871597e-008  5.0000e+000  0.0000e+000  5.0000e+000  0.0000e+000  0.0000e+000  5.0000e+000  5.0002e+000
 7.071597e-008  5.0000e+000  0.0000e+000  5.0000e+000  0.0000e+000  0.0000e+000  5.0000e+000  4.9998e+000
 7.100000e-008  5.0000e+000  0.0000e+000  5.0000e+000  0.0000e+000  0.0000e+000  5.0000e+000  5.0001e+000
 7.125000e-008  5.0000e+000  0.0000e+000  5.0000e+000  0.0000e+000  0.0000e+000  3.7500e+000  5.0000e+000
 7.156500e-008  5.0000e+000  0.0000e+000  5.0000e+000  0.0000e+000  0.0000e+000  2.1750e+000  5.0000e+000
 7.180125e-008  5.0000e+000  0.0000e+000  5.0000e+000  0.0000e+000  0.0000e+000  9.9375e-001  5.0000e+000
 7.196245e-008  5.0000e+000  0.0000e+000  5.0000e+000  0.0000e+000  0.0000e+000  1.8772e-001  4.9999e+000
 7.200000e-008  5.0000e+000  0.0000e+000  5.0000e+000  0.0000e+000  0.0000e+000  0.0000e+000  4.9999e+000
 7.205208e-008  5.0000e+000  0.0000e+000  5.0000e+000  0.0000e+000  0.0000e+000  0.0000e+000  5.0000e+000
 7.257289e-008  5.0000e+000  0.0000e+000  5.0000e+000  0.0000e+000  0.0000e+000  0.0000e+000  5.0000e+000
 7.457289e-008  5.0000e+000  0.0000e+000  5.0000e+000  0.0000e+000  0.0000e+000  0.0000e+000  5.0000e+000
 7.657289e-008  5.0000e+000  0.0000e+000  5.0000e+000  0.0000e+000  0.0000e+000  0.0000e+000  5.0000e+000
 7.857289e-008  5.0000e+000  0.0000e+000  5.0000e+000  0.0000e+000  0.0000e+000  0.0000e+000  5.0000e+000
 8.000000e-008  5.0000e+000  0.0000e+000  5.0000e+000  0.0000e+000  0.0000e+000  0.0000e+000  5.0000e+000
 8.025000e-008  5.0000e+000  1.2500e+000  5.0000e+000  1.2500e+000  1.2500e+000  0.0000e+000  5.0069e+000
 8.037500e-008  5.0000e+000  1.8750e+000  5.0000e+000  1.8750e+000  1.8750e+000  0.0000e+000  5.0070e+000
 8.043750e-008  5.0000e+000  2.1875e+000  5.0000e+000  2.1875e+000  2.1875e+000  0.0000e+000  5.0069e+000
 8.050997e-008  5.0000e+000  2.5499e+000  5.0000e+000  2.5499e+000  2.5499e+000  0.0000e+000  5.0067e+000
 8.059501e-008  5.0000e+000  2.9751e+000  5.0000e+000  2.9751e+000  2.9751e+000  0.0000e+000  5.0067e+000
 8.069662e-008  5.0000e+000  3.4831e+000  5.0000e+000  3.4831e+000  3.4831e+000  0.0000e+000  5.0066e+000
 8.081924e-008  5.0000e+000  4.0962e+000  5.0000e+000  4.0962e+000  4.0962e+000  0.0000e+000  5.0048e+000
 8.096829e-008  5.0000e+000  4.8415e+000  5.0000e+000  4.8415e+000  4.8415e+000  0.0000e+000  4.9890e+000
 8.100000e-008  5.0000e+000  5.0000e+000  5.0000e+000  5.0000e+000  5.0000e+000  0.0000e+000  4.9835e+000
 8.108630e-008  5.0000e+000  5.0000e+000  4.5685e+000  5.0000e+000  5.0000e+000  0.0000e+000  4.9853e+000
 8.140130e-008  5.0000e+000  5.0000e+000  2.9935e+000  5.0000e+000  5.0000e+000  0.0000e+000  4.9909e+000
 8.168911e-008  5.0000e+000  5.0000e+000  1.5544e+000  5.0000e+000  5.0000e+000  0.0000e+000  4.9892e+000
 8.183302e-008  5.0000e+000  5.0000e+000  8.3488e-001  5.0000e+000  5.0000e+000  0.0000e+000  4.9824e+000
 8.193938e-008  5.0000e+000  5.0000e+000  3.0306e-001  5.0000e+000  5.0000e+000  0.0000e+000  4.9842e+000
 8.200000e-008  5.0000e+000  5.0000e+000  0.0000e+000  5.0000e+000  5.0000e+000  0.0000e+000  4.9841e+000
 8.206617e-008  5.0000e+000  5.0000e+000  0.0000e+000  5.0000e+000  5.0000e+000  0.0000e+000  4.9896e+000
 8.272792e-008  5.0000e+000  5.0000e+000  0.0000e+000  5.0000e+000  5.0000e+000  0.0000e+000  4.9979e+000
 8.305880e-008  5.0000e+000  5.0000e+000  0.0000e+000  5.0000e+000  5.0000e+000  0.0000e+000  4.9992e+000
 8.495537e-008  5.0000e+000  5.0000e+000  0.0000e+000  5.0000e+000  5.0000e+000  0.0000e+000  4.9998e+000
 8.695537e-008  5.0000e+000  5.0000e+000  0.0000e+000  5.0000e+000  5.0000e+000  0.0000e+000  5.0000e+000
 8.895537e-008  5.0000e+000  5.0000e+000  0.0000e+000  5.0000e+000  5.0000e+000  0.0000e+000  4.9998e+000
 9.095537e-008  5.0000e+000  5.0000e+000  0.0000e+000  5.0000e+000  5.0000e+000  0.0000e+000  5.0000e+000
 9.100000e-008  5.0000e+000  5.0000e+000  0.0000e+000  5.0000e+000  5.0000e+000  0.0000e+000  4.9999e+000
 9.125000e-008  3.7500e+000  5.0000e+000  0.0000e+000  5.0000e+000  5.0000e+000  0.0000e+000  4.9830e+000
 9.137500e-008  3.1250e+000  5.0000e+000  0.0000e+000  5.0000e+000  5.0000e+000  0.0000e+000  4.9808e+000
 9.161125e-008  1.9437e+000  5.0000e+000  0.0000e+000  5.0000e+000  5.0000e+000  0.0000e+000  4.9814e+000
 9.180448e-008  9.7759e-001  5.0000e+000  0.0000e+000  5.0000e+000  5.0000e+000  0.0000e+000  4.9821e+000
 9.194230e-008  2.8847e-001  5.0000e+000  0.0000e+000  5.0000e+000  5.0000e+000  0.0000e+000  4.9824e+000
 9.200000e-008  0.0000e+000  5.0000e+000  0.0000e+000  5.0000e+000  5.0000e+000  0.0000e+000  4.9826e+000
 9.206456e-008  0.0000e+000  5.0000e+000  0.0000e+000  5.0000e+000  5.0000e+000  0.0000e+000  4.9975e+000
 9.271018e-008  0.0000e+000  5.0000e+000  0.0000e+000  5.0000e+000  5.0000e+000  0.0000e+000  5.0000e+000
 9.471018e-008  0.0000e+000  5.0000e+000  0.0000e+000  5.0000e+000  5.0000e+000  0.0000e+000  5.0000e+000
 9.671018e-008  0.0000e+000  5.0000e+000  0.0000e+000  5.0000e+000  5.0000e+000  0.0000e+000  5.0000e+000
 9.871018e-008  0.0000e+000  5.0000e+000  0.0000e+000  5.0000e+000  5.0000e+000  0.0000e+000  5.0000e+000
 1.000000e-007  0.0000e+000  5.0000e+000  0.0000e+000  5.0000e+000  5.0000e+000  0.0000e+000  5.0000e+000
*

* Parsing                      0.01 seconds
* Setup                        0.00 seconds
* DC operating point           0.00 seconds
* Transient Analysis           0.01 seconds
* Overhead                     3.36 seconds
* -----------------------------------------
* Total                        3.38 seconds

* Simulation completed	with  6 Warnings

* End of T-Spice output file
