* T-Spice 13.00 Simulation	Wed Mar 06 11:35:10 2019	C:\Users\i140420\Desktop\Kamran_VLSI_6_6-3\Deco.spc
* Command line: tspice -o C:\Users\i140420\Desktop\Kamran_VLSI_6_6-3\Deco.out C:\Users\i140420\Desktop\Kamran_VLSI_6_6-3\Deco.spc 
* T-Spice Win32 13.00.20080321.01:01:33
* Warning : Node 1 is attached to only one device (M1)
* Warning : Node 2 is attached to only one device (M2)
* Warning : Node 3 is attached to only one device (M3)

*SEDIT: Alter blocks = 0

* Accuracy and Convergence options:
* numndset|dchold = 100
* 
* Timestep and Integration options:
*  relq|relchgtol = 0.0005
* 
* Model Evaluation options:
*            dcap = 2                    defnrb = 0 [sq]               defnrd = 0 [sq]
*          defnrs = 0 [sq]                 tnom = 25 [deg C]
* 
* General options:
*            temp = 25 [deg C]          threads = 4
* 
* Output options:
*           acout = 1                    ingold = 0
* 


*  Device and node counts:
*             MOSFETs - 14                MOSFET geometries - 28      
*                BJTs - 0                             JFETs - 0       
*             MESFETs - 0                            Diodes - 0       
*          Capacitors - 0                         Resistors - 0       
*           Inductors - 0                  Mutual inductors - 0       
*  Transmission lines - 0        Coupled transmission lines - 0       
*     Voltage sources - 3                   Current sources - 0       
*                VCVS - 0                              VCCS - 0       
*                CCVS - 0                              CCCS - 0       
*    V-control switch - 0                  I-control switch - 0       
*       Macro devices - 0        External C model instances - 0       
*         HDL devices - 0       
*         Subcircuits - 0              Subcircuit instances - 0       
*   Independent nodes - 13                   Boundary nodes - 4       
*         Total nodes - 17      

* *** 3 WARNING MESSAGES GENERATED DURING SETUP


*SEDIT: Alter=0
*SEDIT: Analysis types DCOP 1 ACMODEL 1 AC 0 TRANSIENT 1 TRANSFER 0 NOISE 0 

* BEGIN NON-GRAPHICAL DATA

DC ANALYSIS - temperature=25.0  
v(1) =   2.5000e+000
v(2) =   2.5000e+000
v(3) =   5.0000e+000
v(4) =   5.0000e+000
v(5) =   5.0000e+000
v(6) =   5.0000e+000
v(8) =   5.0000e+000
v(13) =   5.0000e+000
v(15) =   1.0801e+000
v(16) =   5.4767e-006
v(17) =   6.0770e-002
v(A) =   0.0000e+000
v(S) =   0.0000e+000
v(Vdd) =   5.0000e+000
v(Z1) =   2.0162e-005
v(Z2) =   2.0159e-005
i1(v1) =  -0.0000e+000
i2(v1) =   0.0000e+000
i1(v3) =  -0.0000e+000
i2(v3) =   0.0000e+000
i1(v4) =  -3.6084e-008
i2(v4) =   3.6084e-008

* END NON-GRAPHICAL DATA

* BEGIN NON-GRAPHICAL DATA

AC SMALL-SIGNAL MODELS - temperature=25.0  

              0             1             2             3          
              M1            M2            M3            M4           
MODEL         PMOS          PMOS          PMOS          PMOS         
TYPE          PMOS          PMOS          PMOS          PMOS         
REGION        Cutoff        Cutoff        Linear        Linear       
ID             -13.90304n    -13.90500n     -3.78176n    349.09679p
IBS              0.            0.            0.            0.      
IBD              0.            0.            0.            0.      
VGS           -744.37298n     -8.06257u     -5.00000      -5.00000 
VDS             -4.99998      -4.99998      -8.06378u    744.37298n
VBS             -2.49999      -2.49999      -4.03189u    372.18649n
VTH           -170.86536m   -170.86536m   -494.17852m   -494.17969m
VDSAT          -31.53145m    -31.53162m     -3.08613      -3.08613 
BETA           261.66562u    261.66561u    157.97638u    157.97633u
RS               0.            0.            0.            0.      
RD               0.            0.            0.            0.      
GM             268.88145n    268.91838n    217.31005p    -20.05999p
GDS              1.04020n      1.04034n    468.98038u   -468.98097u
GMB             14.46569n     14.46749n    286.56257p    -26.45287p
GBD              0.            0.            0.            0.      
GBS              0.            0.            0.            0.      
CDTOT            9.23257f      9.66296f     18.42569f      7.08190f
CGTOT            7.11969f      7.11966f     10.77866f     10.77866f
CSTOT           33.70109f     32.06626f     18.37478f     15.09629f
CBTOT           40.80077f     39.59633f     31.81093f     17.18866f
CGS              5.22976f      5.22974f      5.22622f      5.22232f
CGD              1.31924f      1.31924f      5.22231f      5.22621f
CGB            570.68678a    570.68304a    330.13423a    330.13838a
CBD              7.91333f      8.34372f     13.70725f      3.97636f
CBS             32.30636f     30.67153f     15.26925f     10.37785f

              4             5             6             7          
              M5            M6            M7            M8           
MODEL         PMOS          PMOS          PMOS          NMOS         
TYPE          PMOS          PMOS          PMOS          NMOS         
REGION        Linear        Cutoff        Linear        Linear       
ID            -349.09679p    229.94102a     -3.78119n     13.91162n
IBS              0.            0.            0.            0.      
IBD              0.            0.            0.            0.      
VGS             -5.00000      -1.20426n     -5.00000       5.00000 
VDS           -744.37298n      8.06257u     -8.06257u     20.15900u
VBS           -372.18649n      4.03129u     -4.03129u      1.08011 
VTH           -494.17969m   -494.17852m   -494.17852m    244.03807m
VDSAT           -3.08613     -39.97545m     -3.08613       2.47065 
BETA           157.97633u    234.92055u    157.97638u    189.28931u
RS               0.            0.            0.            0.      
RD               0.            0.            0.            0.      
GM              20.05999p     -6.60100f    217.27759p     -1.50916n
GDS            468.98097u    -28.51635p    468.98038u    690.09241u
GMB             26.45287p     -2.48714f    286.51977p    333.04977p
GBD              0.            0.            0.            0.      
GBS              0.            0.            0.            0.      
CDTOT           13.92483f      5.23138f     14.05326f     14.91707f
CGTOT           10.77866f      5.33019f     10.77866f      5.65178f
CSTOT            7.08190f     11.69707f      7.01767f     12.25188f
CBTOT           16.01720f     16.99906f     16.08140f     24.39580f
CGS              5.22621f      1.31924f      5.22622f      2.78938f
CGD              5.22232f      1.30187f      5.22231f      2.62471f
CGB            330.13838a      2.70908f    330.13423a    237.69434a
CBD              9.20638f      3.91214f      9.33482f     12.19893f
CBS              3.97636f     10.37783f      3.91214f     11.55079f

              8             9             10            11         
              M9            M10           M11           M12          
MODEL         NMOS          NMOS          NMOS          NMOS         
TYPE          NMOS          NMOS          NMOS          NMOS         
REGION        Linear        Cutoff        Cutoff        Cutoff       
ID              13.91359n      3.77284n    696.25161p    689.33447p
IBS              0.            0.            0.            0.      
IBD              0.            0.            0.            0.      
VGS              4.99999       0.            0.          -60.76971m
VDS             20.16184u      4.99999      60.76971m      4.93923 
VBS              1.08011       1.08011       1.08011       1.01934 
VTH            244.03807m    191.43844m    243.39898m    198.17584m
VDSAT            2.47064      32.98855m     32.79241m     33.06606m
BETA           189.28974u    377.64181u    386.37125u    378.84989u
RS               0.            0.            0.            0.      
RD               0.            0.            0.            0.      
GM              -1.50937n     92.45282n     17.42910n     17.45815n
GDS            690.09296u      1.15798n      1.84333n    217.40739p
GMB            333.09717p      9.47538n      1.87168n      2.00779n
GBD              0.            0.            0.            0.      
GBS              0.            0.            0.            0.      
CDTOT           15.51666f      5.12970f      3.58589f      3.21171f
CGTOT            5.65178f      2.94092f      3.01937f      3.01938f
CSTOT           11.65229f     12.11005f      8.93737f      3.58781f
CBTOT           24.39580f     16.74761f     12.06068f      6.35561f
CGS              2.78938f      1.80599f      1.86118f      1.84361f
CGD              2.62471f    539.22924a    539.46740a    539.37207a
CGB            237.69434a    595.70346a    618.71993a    636.39665a
CBD             12.79852f      4.59041f      3.04640f      2.67233f
CBS             10.95119f     11.55889f      8.39481f      3.04640f

              12            13         
              M13           M14          
MODEL         NMOS          NMOS         
TYPE          NMOS          NMOS         
REGION        Linear        Cutoff       
ID               3.77943n      3.77227n
IBS              0.            0.      
IBD              0.            0.      
VGS              4.99999      -5.47667u
VDS              5.47667u      4.99999 
VBS              1.08011       1.08011 
VTH            244.03822m    191.43904m
VDSAT            2.47064      32.98854m
BETA           189.28973u    377.64192u
RS               0.            0.      
RD               0.            0.      
GM            -410.00304p     92.43934n
GDS            690.09603u      1.15781n
GMB             90.48100p      9.47410n
GBD              0.            0.      
GBS              0.            0.      
CDTOT            5.76498f      2.90994f
CGTOT            5.65178f      2.94093f
CSTOT           10.02366f      3.59799f
CBTOT           13.01549f      6.01579f
CGS              2.78938f      1.80599f
CGD              2.62471f    539.22927a
CGB            237.69441a    595.70699a
CBD              3.04683f      2.37065f
CBS              9.32256f      3.04683f


* VOLTAGE SOURCES

              14            15            16         
              v1            v3            v4           
VOLTAGE          0.            0.            5.00000 
CURRENT          0.            0.          -36.08419n
POWER            0.            0.         -180.42093n


Element name cross-reference:
      0 : M1
      1 : M2
      2 : M3
      3 : M4
      4 : M5
      5 : M6
      6 : M7
      7 : M8
      8 : M9
      9 : M10
     10 : M11
     11 : M12
     12 : M13
     13 : M14
     14 : v1
     15 : v3
     16 : v4

* END NON-GRAPHICAL DATA

*WEDIT: .tran   1e-008   1e-007
TRANSIENT ANALYSIS
Time<s>        v(A,Gnd)<V>  v(S,Gnd)<V>  v(Z1,Gnd)<V>  v(Z2,Gnd)<V>
 0.000000e+000  0.0000e+000  0.0000e+000  2.0162e-005  2.0159e-005
 6.250000e-010  3.1250e+000  0.0000e+000  4.0070e+000  1.2595e-002
 9.375000e-010  4.6875e+000  0.0000e+000  4.8109e+000  1.1965e-003
 1.000000e-009  5.0000e+000  0.0000e+000  4.9215e+000 -3.1677e-003
 1.095332e-009  5.0000e+000  0.0000e+000  4.9579e+000 -4.4794e-003
 1.369169e-009  5.0000e+000  0.0000e+000  4.9888e+000 -1.3245e-003
 2.303163e-009  5.0000e+000  0.0000e+000  5.0072e+000  1.0828e-003
 4.227301e-009  5.0000e+000  0.0000e+000  4.9940e+000 -8.5690e-004
 5.000000e-009  5.0000e+000  0.0000e+000  5.0036e+000  5.5418e-004
 5.999999e-009  5.0000e+000  5.0000e+000  1.8371e-001  4.6916e+000
 6.500000e-009  5.0000e+000  5.0000e+000  1.6009e-002  4.9633e+000
 6.750000e-009  5.0000e+000  5.0000e+000  2.5755e-003  4.9915e+000
 8.239044e-009  5.0000e+000  5.0000e+000 -2.0611e-003  5.0067e+000
 1.100000e-008  5.0000e+000  5.0000e+000  1.9578e-003  4.9940e+000
 1.200000e-008  0.0000e+000  5.0000e+000 -3.7815e-003  1.7466e-001
 1.250000e-008  0.0000e+000  5.0000e+000 -6.6174e-005  1.6308e-002
 1.392086e-008  0.0000e+000  5.0000e+000  1.7943e-005  5.9609e-004
 1.600000e-008  0.0000e+000  5.0000e+000  2.2133e-005 -4.9851e-004
 1.700000e-008  0.0000e+000  8.8818e-015  3.1707e-003  2.4474e-003
 1.750000e-008  0.0000e+000  0.0000e+000  3.3414e-004  1.1961e-003
 1.775000e-008  0.0000e+000  0.0000e+000  4.3886e-005  3.6836e-004
 2.000000e-008  0.0000e+000  0.0000e+000  8.2293e-005 -1.9002e-004
 2.250000e-008  5.0000e+000  0.0000e+000  4.8984e+000  3.1280e-003
 2.375000e-008  5.0000e+000  0.0000e+000  4.9946e+000 -3.0442e-004
 2.437500e-008  5.0000e+000  0.0000e+000  5.0032e+000  1.8948e-004
 2.500000e-008  5.0000e+000  0.0000e+000  4.9980e+000  2.4715e-006
 2.750000e-008  5.0000e+000  5.0000e+000  7.0816e-002  4.8951e+000
 2.875000e-008  5.0000e+000  5.0000e+000  2.4330e-003  4.9943e+000
 2.937500e-008  5.0000e+000  5.0000e+000 -1.6624e-003  5.0034e+000
 3.100000e-008  5.0000e+000  5.0000e+000  1.5464e-003  4.9972e+000
 3.350000e-008  0.0000e+000  5.0000e+000 -1.5223e-003  6.9549e-002
 3.475000e-008  0.0000e+000  5.0000e+000  6.1061e-006  2.6529e-003
 3.600000e-008  0.0000e+000  5.0000e+000  3.5617e-005 -2.2125e-003
 3.850000e-008  0.0000e+000  0.0000e+000  1.3324e-003  1.1403e-003
 3.975000e-008  0.0000e+000  0.0000e+000  9.2943e-005  2.6187e-004
 4.000000e-008  0.0000e+000  0.0000e+000  1.3566e-005  3.0798e-005
 4.100000e-008  5.0000e+000  0.0000e+000  4.7049e+000  8.4353e-003
 4.150000e-008  5.0000e+000  0.0000e+000  4.9655e+000 -1.4464e-003
 4.175000e-008  5.0000e+000  0.0000e+000  4.9920e+000 -6.8139e-004
 4.330457e-008  5.0000e+000  0.0000e+000  5.0064e+000  6.5208e-004
 4.500000e-008  5.0000e+000  0.0000e+000  4.9948e+000 -4.7342e-004
 4.600000e-008  5.0000e+000  5.0000e+000  1.8298e-001  4.6914e+000
 4.650000e-008  5.0000e+000  5.0000e+000  1.5914e-002  4.9633e+000
 4.675000e-008  5.0000e+000  5.0000e+000  2.5568e-003  4.9915e+000
 4.823892e-008  5.0000e+000  5.0000e+000 -2.0454e-003  5.0067e+000
 5.100000e-008  5.0000e+000  5.0000e+000  1.9434e-003  4.9940e+000
 5.350000e-008  0.0000e+000  5.0000e+000 -1.5160e-003  6.9470e-002
 5.475000e-008  0.0000e+000  5.0000e+000  6.4564e-006  2.6492e-003
 5.600000e-008  0.0000e+000  5.0000e+000  3.5294e-005 -2.2094e-003
 5.850000e-008  0.0000e+000  0.0000e+000  1.3083e-003  1.1175e-003
 5.975000e-008  0.0000e+000  0.0000e+000  9.2311e-005  2.6130e-004
 6.000000e-008  3.3087e-014  0.0000e+000  1.4062e-005  3.1286e-005
 6.100000e-008  5.0000e+000  0.0000e+000  4.7049e+000  8.4354e-003
 6.150000e-008  5.0000e+000  0.0000e+000  4.9655e+000 -1.4464e-003
 6.174999e-008  5.0000e+000  0.0000e+000  4.9920e+000 -6.8138e-004
 6.330457e-008  5.0000e+000  0.0000e+000  5.0064e+000  6.5208e-004
 6.500000e-008  5.0000e+000  0.0000e+000  4.9948e+000 -4.7342e-004
 6.750000e-008  5.0000e+000  5.0000e+000  7.0721e-002  4.8951e+000
 6.875000e-008  5.0000e+000  5.0000e+000  2.4271e-003  4.9943e+000
 6.937500e-008  5.0000e+000  5.0000e+000 -1.6585e-003  5.0034e+000
 7.100000e-008  5.0000e+000  5.0000e+000  1.5432e-003  4.9972e+000
 7.350000e-008  0.0000e+000  5.0000e+000 -1.5224e-003  6.9549e-002
 7.475000e-008  0.0000e+000  5.0000e+000  6.1017e-006  2.6529e-003
 7.600000e-008  0.0000e+000  5.0000e+000  3.5621e-005 -2.2125e-003
 7.850000e-008  0.0000e+000  0.0000e+000  1.3324e-003  1.1403e-003
 7.975000e-008  0.0000e+000  0.0000e+000  9.2944e-005  2.6187e-004
 8.000000e-008  0.0000e+000  0.0000e+000  1.3566e-005  3.0798e-005
 8.100000e-008  5.0000e+000  0.0000e+000  4.7049e+000  8.4354e-003
 8.150000e-008  5.0000e+000  0.0000e+000  4.9655e+000 -1.4464e-003
 8.175000e-008  5.0000e+000  0.0000e+000  4.9920e+000 -6.8139e-004
 8.330457e-008  5.0000e+000  0.0000e+000  5.0064e+000  6.5209e-004
 8.500000e-008  5.0000e+000  0.0000e+000  4.9948e+000 -4.7343e-004
 8.600000e-008  5.0000e+000  5.0000e+000  1.8298e-001  4.6914e+000
 8.650000e-008  5.0000e+000  5.0000e+000  1.5914e-002  4.9633e+000
 8.675000e-008  5.0000e+000  5.0000e+000  2.5568e-003  4.9915e+000
 8.823892e-008  5.0000e+000  5.0000e+000 -2.0454e-003  5.0067e+000
 9.100000e-008  5.0000e+000  5.0000e+000  1.9434e-003  4.9940e+000
 9.200000e-008  0.0000e+000  5.0000e+000 -3.7824e-003  1.7466e-001
 9.250000e-008  0.0000e+000  5.0000e+000 -6.6250e-005  1.6308e-002
 9.392086e-008  0.0000e+000  5.0000e+000  1.7940e-005  5.9610e-004
 9.600000e-008  0.0000e+000  5.0000e+000  2.2135e-005 -4.9851e-004
 9.700000e-008  0.0000e+000  0.0000e+000  3.1710e-003  2.4476e-003
 9.750000e-008  0.0000e+000  0.0000e+000  3.3416e-004  1.1961e-003
 9.775000e-008  0.0000e+000  0.0000e+000  4.3890e-005  3.6837e-004
 1.000000e-007  3.3087e-014  0.0000e+000  8.2290e-005 -1.9002e-004
*

* Parsing                      0.02 seconds
* Setup                        0.00 seconds
* DC operating point           0.07 seconds
* Transient Analysis           0.01 seconds
* Overhead                     0.50 seconds
* -----------------------------------------
* Total                        0.60 seconds

* Simulation completed	with  3 Warnings

* End of T-Spice output file
