* T-Spice 13.00 Simulation	Fri Mar 01 09:40:11 2019	C:\Users\i140420\Desktop\Kamran_VLSI_5\nan.spc
* Command line: tspice -o C:\Users\i140420\Desktop\Kamran_VLSI_5\nan.out C:\Users\i140420\Desktop\Kamran_VLSI_5\nan.spc 
* T-Spice Win32 13.00.20080321.01:01:33

*SEDIT: Alter blocks = 0

* Accuracy and Convergence options:
* numndset|dchold = 100
* 
* Timestep and Integration options:
*  relq|relchgtol = 0.0005
* 
* Model Evaluation options:
*            dcap = 2                    defnrb = 0 [sq]               defnrd = 0 [sq]
*          defnrs = 0 [sq]                 tnom = 25 [deg C]
* 
* General options:
*            temp = 25 [deg C]          threads = 4
* 
* Output options:
*           acout = 1                    ingold = 0
* 


*  Device and node counts:
*             MOSFETs - 4                 MOSFET geometries - 8       
*                BJTs - 0                             JFETs - 0       
*             MESFETs - 0                            Diodes - 0       
*          Capacitors - 0                         Resistors - 0       
*           Inductors - 0                  Mutual inductors - 0       
*  Transmission lines - 0        Coupled transmission lines - 0       
*     Voltage sources - 3                   Current sources - 0       
*                VCVS - 0                              VCCS - 0       
*                CCVS - 0                              CCCS - 0       
*    V-control switch - 0                  I-control switch - 0       
*       Macro devices - 0        External C model instances - 0       
*         HDL devices - 0       
*         Subcircuits - 0              Subcircuit instances - 0       
*   Independent nodes - 4                    Boundary nodes - 4       
*         Total nodes - 8       


*SEDIT: Alter=0
*SEDIT: Analysis types DCOP 1 ACMODEL 1 AC 0 TRANSIENT 1 TRANSFER 0 NOISE 0 

* BEGIN NON-GRAPHICAL DATA

DC ANALYSIS - temperature=25.0  
v(4) =   5.0000e+000
v(5) =   1.2898e+000
v(6) =   7.9601e-002
v(A) =   0.0000e+000
v(B) =   0.0000e+000
v(Vdd) =   5.0000e+000
v(Vnand) =   5.0000e+000
i1(v1) =  -0.0000e+000
i2(v1) =   0.0000e+000
i1(v2) =  -0.0000e+000
i2(v2) =   0.0000e+000
i1(v3) =  -1.2386e-009
i2(v3) =   1.2386e-009

* END NON-GRAPHICAL DATA

* BEGIN NON-GRAPHICAL DATA

AC SMALL-SIGNAL MODELS - temperature=25.0  

              0             1             2             3          
              M1            M2            M3            M4           
MODEL         PMOS          PMOS          NMOS          NMOS         
TYPE          PMOS          PMOS          NMOS          NMOS         
REGION        Linear        Linear        Cutoff        Cutoff       
ID            -619.28368p    619.28368p      1.23720n      1.22994n
IBS              0.            0.            0.            0.      
IBD              0.            0.            0.            0.      
VGS             -5.00000      -5.00000       0.          -79.60107m
VDS             -1.19100u      1.19100u     79.60107m      4.92040 
VBS           -595.49838n    595.49838n      1.28980       1.21020 
VTH           -487.73898m   -487.73898m    233.89575m    177.67855m
VDSAT           -2.87769      -2.87769      32.38605m     32.72715m
BETA           212.73521u    212.73521u    478.12328u    466.41513u
RS               0.            0.            0.            0.      
RD               0.            0.            0.            0.      
GM              16.29943p    -16.29943p     30.09678n     30.40231n
GDS            519.97086u   -519.97086u      2.05743n    492.03277p
GMB             28.95302p    -28.95302p      2.90361n      3.21022n
GBD              0.            0.            0.            0.      
GBS              0.            0.            0.            0.      
CDTOT            5.91444f      6.95839f      2.84359f      2.43724f
CGTOT            6.47941f      6.47941f      2.05118f      2.05908f
CSTOT            7.57380f      5.91444f      6.24298f      2.84490f
CBTOT           10.11566f      9.50025f      8.53916f      4.74665f
CGS              3.10280f      3.13494f      1.25735f      1.25437f
CGD              3.13494f      3.10280f    446.40413a    446.37698a
CGB            241.67365a    241.67365a    347.42339a    358.32461a
CBD              2.92654f      5.06183f      2.39717f      1.99086f
CBS              5.67724f      2.92654f      5.79402f      2.39717f


* VOLTAGE SOURCES

              4             5             6          
              v1            v2            v3           
VOLTAGE          0.            0.            5.00000 
CURRENT          0.            0.           -1.23857n
POWER            0.            0.           -6.19284n


Element name cross-reference:
      0 : M1
      1 : M2
      2 : M3
      3 : M4
      4 : v1
      5 : v2
      6 : v3

* END NON-GRAPHICAL DATA

*WEDIT: .tran   1e-008   1e-007
TRANSIENT ANALYSIS
Time<s>        v(Vnand,Gnd)<V>  v(A,Gnd)<V>  v(B,Gnd)<V>
 0.000000e+000  5.0000e+000  0.0000e+000  0.0000e+000
 6.250000e-010  5.0192e+000  3.1250e+000  0.0000e+000
 8.218750e-010  5.0253e+000  4.1094e+000  0.0000e+000
 1.000000e-009  5.0160e+000  5.0000e+000  0.0000e+000
 1.212234e-009  5.0011e+000  5.0000e+000  0.0000e+000
 3.334576e-009  5.0000e+000  5.0000e+000  0.0000e+000
 5.000000e-009  5.0000e+000  5.0000e+000  0.0000e+000
 5.999999e-009  1.5959e-001  5.0000e+000  5.0000e+000
 6.500000e-009  7.1000e-003  5.0000e+000  5.0000e+000
 7.975472e-009  1.1513e-004  5.0000e+000  5.0000e+000
 1.100000e-008 -1.0289e-004  5.0000e+000  5.0000e+000
 1.200000e-008  4.8479e+000  0.0000e+000  5.0000e+000
 1.250000e-008  4.9915e+000  0.0000e+000  5.0000e+000
 1.275000e-008  4.9984e+000  0.0000e+000  5.0000e+000
 1.525000e-008  5.0006e+000  0.0000e+000  5.0000e+000
 1.600000e-008  4.9994e+000  0.0000e+000  5.0000e+000
 1.700000e-008  4.9820e+000  0.0000e+000  8.8818e-015
 1.731500e-008  4.9994e+000  0.0000e+000  0.0000e+000
 2.000000e-008  5.0000e+000  0.0000e+000  0.0000e+000
 2.250000e-008  5.0107e+000  5.0000e+000  0.0000e+000
 2.375000e-008  5.0001e+000  5.0000e+000  0.0000e+000
 2.500000e-008  4.9998e+000  5.0000e+000  0.0000e+000
 2.750000e-008  6.4401e-002  5.0000e+000  5.0000e+000
 2.875000e-008  1.1804e-003  5.0000e+000  5.0000e+000
 3.100000e-008 -1.1236e-003  5.0000e+000  5.0000e+000
 3.350000e-008  4.9386e+000  0.0000e+000  5.0000e+000
 3.475000e-008  4.9981e+000  0.0000e+000  5.0000e+000
 3.537500e-008  5.0007e+000  0.0000e+000  5.0000e+000
 3.600000e-008  4.9991e+000  0.0000e+000  5.0000e+000
 3.850000e-008  4.9928e+000  0.0000e+000  0.0000e+000
 3.928750e-008  4.9999e+000  0.0000e+000  0.0000e+000
 4.000000e-008  5.0001e+000  0.0000e+000  0.0000e+000
 4.100000e-008  5.0267e+000  5.0000e+000  0.0000e+000
 4.150000e-008  5.0008e+000  5.0000e+000  0.0000e+000
 4.500000e-008  5.0000e+000  5.0000e+000  0.0000e+000
 4.600000e-008  1.5959e-001  5.0000e+000  5.0000e+000
 4.650000e-008  7.1000e-003  5.0000e+000  5.0000e+000
 4.797547e-008  1.1513e-004  5.0000e+000  5.0000e+000
 5.100000e-008 -1.0289e-004  5.0000e+000  5.0000e+000
 5.350000e-008  4.9386e+000  0.0000e+000  5.0000e+000
 5.475000e-008  4.9981e+000  0.0000e+000  5.0000e+000
 5.537500e-008  5.0007e+000  0.0000e+000  5.0000e+000
 5.600000e-008  4.9991e+000  0.0000e+000  5.0000e+000
 5.850000e-008  4.9928e+000  0.0000e+000  0.0000e+000
 5.928750e-008  4.9999e+000  0.0000e+000  0.0000e+000
 6.000000e-008  5.0001e+000  3.3087e-014  0.0000e+000
 6.100000e-008  5.0267e+000  5.0000e+000  0.0000e+000
 6.150000e-008  5.0008e+000  5.0000e+000  0.0000e+000
 6.500000e-008  5.0000e+000  5.0000e+000  0.0000e+000
 6.750000e-008  6.4402e-002  5.0000e+000  5.0000e+000
 6.875000e-008  1.1804e-003  5.0000e+000  5.0000e+000
 7.100000e-008 -1.1236e-003  5.0000e+000  5.0000e+000
 7.350000e-008  4.9386e+000  0.0000e+000  5.0000e+000
 7.475000e-008  4.9981e+000  0.0000e+000  5.0000e+000
 7.537500e-008  5.0007e+000  0.0000e+000  5.0000e+000
 7.600000e-008  4.9991e+000  0.0000e+000  5.0000e+000
 7.850000e-008  4.9928e+000  0.0000e+000  0.0000e+000
 7.928750e-008  4.9999e+000  0.0000e+000  0.0000e+000
 8.000000e-008  5.0001e+000  0.0000e+000  0.0000e+000
 8.100000e-008  5.0267e+000  5.0000e+000  0.0000e+000
 8.150000e-008  5.0008e+000  5.0000e+000  0.0000e+000
 8.500000e-008  5.0000e+000  5.0000e+000  0.0000e+000
 8.600000e-008  1.5959e-001  5.0000e+000  5.0000e+000
 8.650000e-008  7.1000e-003  5.0000e+000  5.0000e+000
 8.797547e-008  1.1513e-004  5.0000e+000  5.0000e+000
 9.100000e-008 -1.0289e-004  5.0000e+000  5.0000e+000
 9.200000e-008  4.8479e+000  0.0000e+000  5.0000e+000
 9.250000e-008  4.9915e+000  0.0000e+000  5.0000e+000
 9.275000e-008  4.9984e+000  0.0000e+000  5.0000e+000
 9.525000e-008  5.0006e+000  0.0000e+000  5.0000e+000
 9.600000e-008  4.9994e+000  0.0000e+000  5.0000e+000
 9.700000e-008  4.9820e+000  0.0000e+000  0.0000e+000
 9.731500e-008  4.9994e+000  0.0000e+000  0.0000e+000
 1.000000e-007  5.0000e+000  3.3087e-014  0.0000e+000
*

* Parsing                      0.01 seconds
* Setup                        0.00 seconds
* DC operating point           0.00 seconds
* Transient Analysis           0.08 seconds
* Overhead                     0.94 seconds
* -----------------------------------------
* Total                        1.04 seconds

* Simulation completed

* End of T-Spice output file
