* T-Spice 13.00 Simulation	Wed Mar 13 11:30:50 2019	C:\Users\i140420\Desktop\Kamran_VLSI_7_13-3\And.spc
* Command line: tspice -o C:\Users\i140420\Desktop\Kamran_VLSI_7_13-3\And.out C:\Users\i140420\Desktop\Kamran_VLSI_7_13-3\And.spc 
* T-Spice Win32 13.00.20080321.01:01:33
* Warning : Node 10 is attached to only one device (M5)
* Warning : Node 8 is attached to only one device (M6)
* Warning : Node 9 is attached to only one device (M7)
* Warning : Node 11 is attached to only one device (M8)

*SEDIT: Alter blocks = 0

* Accuracy and Convergence options:
* numndset|dchold = 100
* 
* Timestep and Integration options:
*  relq|relchgtol = 0.0005
* 
* Model Evaluation options:
*            dcap = 2                    defnrb = 0 [sq]               defnrd = 0 [sq]
*          defnrs = 0 [sq]                 tnom = 25 [deg C]
* 
* General options:
*            temp = 25 [deg C]          threads = 4
* 
* Output options:
*           acout = 1                    ingold = 0
* 


*  Device and node counts:
*             MOSFETs - 8                 MOSFET geometries - 12      
*                BJTs - 0                             JFETs - 0       
*             MESFETs - 0                            Diodes - 0       
*          Capacitors - 0                         Resistors - 0       
*           Inductors - 0                  Mutual inductors - 0       
*  Transmission lines - 0        Coupled transmission lines - 0       
*     Voltage sources - 3                   Current sources - 0       
*                VCVS - 0                              VCCS - 0       
*                CCVS - 0                              CCCS - 0       
*    V-control switch - 0                  I-control switch - 0       
*       Macro devices - 0        External C model instances - 0       
*         HDL devices - 0       
*         Subcircuits - 0              Subcircuit instances - 0       
*   Independent nodes - 9                    Boundary nodes - 4       
*         Total nodes - 13      

* *** 4 WARNING MESSAGES GENERATED DURING SETUP


*SEDIT: Alter=0
*SEDIT: Analysis types DCOP 1 ACMODEL 1 AC 0 TRANSIENT 1 TRANSFER 0 NOISE 0 

* BEGIN NON-GRAPHICAL DATA

DC ANALYSIS - temperature=25.0  
v(1) =   5.0000e+000
v(2) =   2.4645e-005
v(8) =   2.5000e+000
v(9) =   5.0000e+000
v(10) =   1.2322e-005
v(11) =   5.0000e+000
v(12) =   5.0000e+000
v(13) =   1.2500e+000
v(A) =   0.0000e+000
v(B) =   0.0000e+000
v(Vdd) =   5.0000e+000
v(Y) =   1.3573e-005
i1(v1) =  -0.0000e+000
i2(v1) =   0.0000e+000
i1(v3) =   2.5000e-012
i2(v3) =  -2.5000e-012
i1(v4) =  -1.4448e-008
i2(v4) =   1.4448e-008

* END NON-GRAPHICAL DATA

* BEGIN NON-GRAPHICAL DATA

AC SMALL-SIGNAL MODELS - temperature=25.0  

              0             1             2             3          
              M1            M2            M3            M4           
MODEL         NMOS          NMOS          NMOS          NMOS         
TYPE          NMOS          NMOS          NMOS          NMOS         
REGION        Linear        Cutoff        Cutoff        Cutoff       
ID               7.66996n      3.38178n      1.24992p      3.37979n
IBS              0.            0.            0.            0.      
IBD              0.            0.            0.            0.      
VGS              4.99999      24.64473u      0.            0.      
VDS             13.57279u      4.99999      24.64473u      4.99999 
VBS              1.25000       1.25000       1.25000       1.25000 
VTH            217.06883m    181.79495m    217.06875m    181.79495m
VDSAT            3.19666      31.73459m     31.54270m     31.73440m
BETA           141.22542u    283.41543u    287.92469u    283.41541u
RS               0.            0.            0.            0.      
RD               0.            0.            0.            0.      
GM            -839.15321p     80.80645n     30.27717p     80.75993n
GDS            565.09745u    727.52877p     50.69542n    727.10850p
GMB            177.66962p      7.11478n      2.89598p      7.11092n
GBD              0.            0.            0.            0.      
GBS              0.            0.            0.            0.      
CDTOT           22.23895f      6.79478f     15.69794f      6.23435f
CGTOT           10.83892f      5.29325f      5.41253f      5.29332f
CSTOT           14.89040f     14.55335f     16.58993f     16.16757f
CBTOT           32.05665f     21.01782f     31.99949f     22.07165f
CGS              5.35255f      3.56004f      3.62914f      3.56009f
CGD              5.08527f    678.57102a    697.16631a    678.57123a
CGB            401.10470a      1.05464f      1.08622f      1.05466f
CBD             17.06871f      6.11609f     15.00043f      5.55567f
CBS             13.84030f     13.84030f     15.90854f     15.45453f

              4             5             6             7          
              M5            M6            M7            M8           
MODEL         PMOS          PMOS          PMOS          PMOS         
TYPE          PMOS          PMOS          PMOS          PMOS         
REGION        Cutoff        Cutoff        Linear        Linear       
ID            1.781e-078      -7.66121n     -3.39053n     -3.38854n
IBS              0.            0.            0.            0.      
IBD              0.            0.            0.            0.      
VGS              4.99999      -8.71384u     -4.99998      -5.00000 
VDS             24.64473u     -4.99999      -8.71384u     -8.70870u
VBS             12.32237u     -2.49999      -4.35692u     -4.35435u
VTH           -494.91174m   -170.53993m   -494.92659m   -494.92659m
VDSAT          -39.43671m    -31.25303m     -3.32741      -3.32743 
BETA           165.78158u    188.63573u    111.51817u    111.51797u
RS               0.            0.            0.            0.      
RD               0.            0.            0.            0.      
GM            -5.12e-077     148.67816n    294.96447p    294.78765p
GDS           -7.22e-074     289.30435p    389.09714u    389.09797u
GMB            -5.7e-077       8.02348n    350.15546p    349.94821p
GBD              0.            0.            0.            0.      
GBS              0.            0.            0.            0.      
CDTOT           20.08728f     14.17062f     30.49632f     28.49590f
CGTOT           21.32221f     12.96219f     20.95417f     20.95417f
CSTOT           21.58738f     37.04865f     22.63604f     24.63647f
CBTOT           56.47667f     48.89078f     44.55655f     44.55656f
CGS              1.65464f     10.18378f     10.20925f     10.20925f
CGD              1.55628f      1.65464f     10.17654f     10.17654f
CGB             18.11129f      1.12377f    568.38482a    568.38479a
CBD             18.43264f     12.51598f     21.87072f     19.87030f
CBS             19.93274f     35.22813f     16.61968f     18.62011f


* VOLTAGE SOURCES

              8             9             10         
              v1            v3            v4           
VOLTAGE          0.            0.            5.00000 
CURRENT          0.            2.49998p    -14.44779n
POWER            0.            0.          -72.23894n


Element name cross-reference:
      0 : M1
      1 : M2
      2 : M3
      3 : M4
      4 : M5
      5 : M6
      6 : M7
      7 : M8
      8 : v1
      9 : v3
     10 : v4

* END NON-GRAPHICAL DATA

*WEDIT: .tran   1e-008   1e-007
TRANSIENT ANALYSIS
Time<s>        v(A,Gnd)<V>  v(B,Gnd)<V>  v(Y,Gnd)<V>
 0.000000e+000  0.0000e+000  0.0000e+000  1.3573e-005
 6.250000e-010  3.1250e+000  0.0000e+000 -9.3887e-003
 9.375000e-010  4.6875e+000  0.0000e+000 -6.8756e-003
 1.000000e-009  5.0000e+000  0.0000e+000 -6.3150e-003
 1.109407e-009  5.0000e+000  0.0000e+000 -5.5969e-003
 1.580374e-009  5.0000e+000  0.0000e+000 -9.1962e-004
 5.000000e-009  5.0000e+000  0.0000e+000  8.8036e-004
 5.999999e-009  5.0000e+000  5.0000e+000  4.5165e+000
 6.500000e-009  5.0000e+000  5.0000e+000  4.9154e+000
 6.996818e-009  5.0000e+000  5.0000e+000  4.9847e+000
 9.161858e-009  5.0000e+000  5.0000e+000  5.0122e+000
 1.100000e-008  5.0000e+000  5.0000e+000  4.9904e+000
 1.200000e-008  0.0000e+000  5.0000e+000  5.0029e+000
 1.250000e-008  0.0000e+000  5.0000e+000  5.0008e+000
 1.387610e-008  0.0000e+000  5.0000e+000  4.9999e+000
 1.600000e-008  0.0000e+000  5.0000e+000  5.0000e+000
 1.700000e-008  0.0000e+000  8.8818e-015  4.9936e+000
 1.750000e-008  0.0000e+000  0.0000e+000  5.0012e+000
 1.775000e-008  0.0000e+000  0.0000e+000  5.0006e+000
 2.000000e-008  0.0000e+000  0.0000e+000  4.9995e+000
 2.112500e-008  5.0000e+000  0.0000e+000  2.9102e-001
 2.168750e-008  5.0000e+000  0.0000e+000  4.3710e-002
 2.257218e-008  5.0000e+000  0.0000e+000 -2.7046e-002
 2.301452e-008  5.0000e+000  0.0000e+000  1.0835e-002
 2.431899e-008  5.0000e+000  0.0000e+000 -8.6597e-003
 2.500000e-008  5.0000e+000  0.0000e+000  5.8848e-003
 2.750000e-008  5.0000e+000  5.0000e+000  4.8237e+000
 2.875000e-008  5.0000e+000  5.0000e+000  4.9860e+000
 3.100000e-008  5.0000e+000  5.0000e+000  5.0113e+000
 3.350000e-008  0.0000e+000  5.0000e+000  5.0021e+000
 3.475000e-008  0.0000e+000  5.0000e+000  5.0001e+000
 3.600000e-008  0.0000e+000  5.0000e+000  4.9998e+000
 3.850000e-008  0.0000e+000  0.0000e+000  4.9976e+000
 3.975000e-008  0.0000e+000  0.0000e+000  5.0002e+000
 4.000000e-008  0.0000e+000  0.0000e+000  5.0000e+000
 4.100000e-008  5.0000e+000  0.0000e+000  3.3106e-001
 4.150000e-008  5.0000e+000  0.0000e+000  5.4757e-002
 4.221868e-008  5.0000e+000  0.0000e+000  7.5644e-003
 4.500000e-008  5.0000e+000  0.0000e+000 -6.3702e-003
 4.600000e-008  5.0000e+000  5.0000e+000  4.5146e+000
 4.650000e-008  5.0000e+000  5.0000e+000  4.9151e+000
 4.699455e-008  5.0000e+000  5.0000e+000  4.9846e+000
 4.914192e-008  5.0000e+000  5.0000e+000  5.0123e+000
 5.100000e-008  5.0000e+000  5.0000e+000  4.9903e+000
 5.350000e-008  0.0000e+000  5.0000e+000  5.0012e+000
 5.475000e-008  0.0000e+000  5.0000e+000  5.0001e+000
 5.600000e-008  0.0000e+000  5.0000e+000  4.9998e+000
 5.850000e-008  0.0000e+000  0.0000e+000  4.9976e+000
 5.975000e-008  0.0000e+000  0.0000e+000  5.0002e+000
 6.000000e-008  3.3087e-014  0.0000e+000  5.0000e+000
 6.100000e-008  5.0000e+000  0.0000e+000  3.3101e-001
 6.150000e-008  5.0000e+000  0.0000e+000  5.4740e-002
 6.221973e-008  5.0000e+000  0.0000e+000  7.5511e-003
 6.500000e-008  5.0000e+000  0.0000e+000 -6.3585e-003
 6.750000e-008  5.0000e+000  5.0000e+000  4.8231e+000
 6.875000e-008  5.0000e+000  5.0000e+000  4.9860e+000
 7.100000e-008  5.0000e+000  5.0000e+000  5.0114e+000
 7.350000e-008  0.0000e+000  5.0000e+000  5.0021e+000
 7.475000e-008  0.0000e+000  5.0000e+000  5.0001e+000
 7.600000e-008  0.0000e+000  5.0000e+000  4.9998e+000
 7.850000e-008  0.0000e+000  0.0000e+000  4.9976e+000
 7.975000e-008  0.0000e+000  0.0000e+000  5.0002e+000
 8.000000e-008  0.0000e+000  0.0000e+000  5.0000e+000
 8.100000e-008  5.0000e+000  0.0000e+000  3.3106e-001
 8.150000e-008  5.0000e+000  0.0000e+000  5.4757e-002
 8.221868e-008  5.0000e+000  0.0000e+000  7.5645e-003
 8.500000e-008  5.0000e+000  0.0000e+000 -6.3702e-003
 8.600000e-008  5.0000e+000  5.0000e+000  4.5146e+000
 8.650000e-008  5.0000e+000  5.0000e+000  4.9151e+000
 8.699455e-008  5.0000e+000  5.0000e+000  4.9846e+000
 8.914191e-008  5.0000e+000  5.0000e+000  5.0123e+000
 9.100000e-008  5.0000e+000  5.0000e+000  4.9903e+000
 9.200000e-008  0.0000e+000  5.0000e+000  5.0029e+000
 9.250000e-008  0.0000e+000  5.0000e+000  5.0008e+000
 9.387610e-008  0.0000e+000  5.0000e+000  4.9999e+000
 9.600000e-008  0.0000e+000  5.0000e+000  5.0000e+000
 9.700000e-008  0.0000e+000  0.0000e+000  4.9936e+000
 9.750000e-008  0.0000e+000  0.0000e+000  5.0012e+000
 9.775000e-008  0.0000e+000  0.0000e+000  5.0006e+000
 1.000000e-007  3.3087e-014  0.0000e+000  4.9995e+000
*

* Parsing                      0.01 seconds
* Setup                        0.00 seconds
* DC operating point           0.14 seconds
* Transient Analysis           0.01 seconds
* Overhead                     1.33 seconds
* -----------------------------------------
* Total                        1.49 seconds

* Simulation completed	with  4 Warnings

* End of T-Spice output file
