* T-Spice 13.00 Simulation	Thu Mar 14 23:08:21 2019	D:\Kamran\Study\FAST NUCES\Mad Max 19\VLSI Lab\Kamran_VLSI_7_13-3\new XOR.spc
* Command line: tspice -o "D:\Kamran\Study\FAST NUCES\Mad Max 19\VLSI Lab\Kamran_VLSI_7_13-3\new XOR.out" "D:\Kamran\Study\FAST NUCES\Mad Max 19\VLSI Lab\Kamran_VLSI_7_13-3\new XOR.spc" 
* T-Spice Win32 13.00.20080321.01:01:33
* Warning : Node 9 is attached to only one device (M1)
* Warning : Node 10 is attached to only one device (M2)
* Warning : Node 1 is attached to only one device (M3)
* Warning : Node 11 is attached to only one device (M3)
* Warning : Node 12 is attached to only one device (M4)
*
* Warning : Disabling printout of duplicate warning messages.
*         : 	Use '.options maxmsg=0' to view all warnings,
*         : 	or increase maxmsg from 5 to view more messages.
*

*SEDIT: Alter blocks = 0

* Accuracy and Convergence options:
* numndset|dchold = 100
* 
* Timestep and Integration options:
*  relq|relchgtol = 0.0005
* 
* Model Evaluation options:
*            dcap = 2                    defnrb = 0 [sq]               defnrd = 0 [sq]
*          defnrs = 0 [sq]                 tnom = 25 [deg C]
* 
* General options:
*            temp = 25 [deg C]          threads = 2
* 
* Output options:
*           acout = 1                    ingold = 0
* 


*  Device and node counts:
*             MOSFETs - 12                MOSFET geometries - 16      
*                BJTs - 0                             JFETs - 0       
*             MESFETs - 0                            Diodes - 0       
*          Capacitors - 0                         Resistors - 0       
*           Inductors - 0                  Mutual inductors - 0       
*  Transmission lines - 0        Coupled transmission lines - 0       
*     Voltage sources - 3                   Current sources - 0       
*                VCVS - 0                              VCCS - 0       
*                CCVS - 0                              CCCS - 0       
*    V-control switch - 0                  I-control switch - 0       
*       Macro devices - 0        External C model instances - 0       
*         HDL devices - 0       
*         Subcircuits - 0              Subcircuit instances - 0       
*   Independent nodes - 13                   Boundary nodes - 4       
*         Total nodes - 17      

* *** 6 WARNING MESSAGES GENERATED DURING SETUP


*SEDIT: Alter=0
*SEDIT: Analysis types DCOP 0 ACMODEL 0 AC 0 TRANSIENT 1 TRANSFER 0 NOISE 0 

*WEDIT: .tran   1e-008   1e-007
TRANSIENT ANALYSIS
Time<s>        v(A,GND)<V>  v(B,GND)<V>  v(Y,GND)<V>
 0.000000e+000  0.0000e+000  0.0000e+000  3.4172e-004
 6.250000e-010  3.1250e+000  0.0000e+000  3.9557e+000
 9.375000e-010  4.6875e+000  0.0000e+000  4.7345e+000
 1.000000e-009  5.0000e+000  0.0000e+000  4.8565e+000
 1.109378e-009  5.0000e+000  0.0000e+000  4.9228e+000
 1.520651e-009  5.0000e+000  0.0000e+000  4.9827e+000
 1.726288e-009  5.0000e+000  0.0000e+000  4.9991e+000
 2.169279e-009  5.0000e+000  0.0000e+000  4.9997e+000
 3.077198e-009  5.0000e+000  0.0000e+000  5.0002e+000
 5.000000e-009  5.0000e+000  0.0000e+000  4.9998e+000
 5.999999e-009  5.0000e+000  5.0000e+000  4.0590e-001
 6.500000e-009  5.0000e+000  5.0000e+000  7.5432e-002
 6.750000e-009  5.0000e+000  5.0000e+000  2.4982e-002
 7.274060e-009  5.0000e+000  5.0000e+000 -1.2506e-002
 7.911100e-009  5.0000e+000  5.0000e+000  6.8687e-003
 1.066186e-008  5.0000e+000  5.0000e+000 -6.0341e-003
 1.100000e-008  5.0000e+000  5.0000e+000  2.1277e-003
 1.200000e-008  0.0000e+000  5.0000e+000  4.4370e+000
 1.250000e-008  0.0000e+000  5.0000e+000  4.8978e+000
 1.275000e-008  0.0000e+000  5.0000e+000  4.9665e+000
 1.372525e-008  0.0000e+000  5.0000e+000  5.0188e+000
 1.550000e-008  0.0000e+000  5.0000e+000  4.9852e+000
 1.600000e-008  0.0000e+000  5.0000e+000  5.0052e+000
 1.700000e-008  0.0000e+000  8.8818e-015  3.7778e-001
 1.750000e-008  0.0000e+000  0.0000e+000  7.7878e-002
 1.813171e-008  0.0000e+000  0.0000e+000  1.5197e-002
 2.000000e-008  0.0000e+000  0.0000e+000 -1.0015e-002
 2.250000e-008  5.0000e+000  0.0000e+000  4.8226e+000
 2.375000e-008  5.0000e+000  0.0000e+000  4.9871e+000
 2.500000e-008  5.0000e+000  0.0000e+000  5.0092e+000
 2.742976e-008  5.0000e+000  5.0000e+000  1.2864e-001
 2.864464e-008  5.0000e+000  5.0000e+000  8.5015e-003
 2.979705e-008  5.0000e+000  5.0000e+000 -6.8123e-003
 3.100000e-008  5.0000e+000  5.0000e+000  5.2817e-003
 3.350000e-008  0.0000e+000  5.0000e+000  4.8184e+000
 3.475000e-008  0.0000e+000  5.0000e+000  4.9850e+000
 3.600000e-008  0.0000e+000  5.0000e+000  5.0095e+000
 3.850000e-008  0.0000e+000  0.0000e+000  1.3684e-001
 3.975000e-008  0.0000e+000  0.0000e+000  1.3125e-002
 4.000000e-008  0.0000e+000  0.0000e+000  1.2472e-003
 4.100000e-008  5.0000e+000  0.0000e+000  4.5158e+000
 4.150000e-008  5.0000e+000  0.0000e+000  4.9191e+000
 4.175000e-008  5.0000e+000  0.0000e+000  4.9767e+000
 4.187500e-008  5.0000e+000  0.0000e+000  4.9944e+000
 4.220486e-008  5.0000e+000  0.0000e+000  5.0004e+000
 4.287945e-008  5.0000e+000  0.0000e+000  4.9997e+000
 4.460304e-008  5.0000e+000  0.0000e+000  5.0002e+000
 4.500000e-008  5.0000e+000  0.0000e+000  5.0000e+000
 4.600000e-008  5.0000e+000  5.0000e+000  4.0606e-001
 4.650000e-008  5.0000e+000  5.0000e+000  7.5477e-002
 4.675000e-008  5.0000e+000  5.0000e+000  2.5000e-002
 4.727384e-008  5.0000e+000  5.0000e+000 -1.2509e-002
 4.791055e-008  5.0000e+000  5.0000e+000  6.8679e-003
 5.065971e-008  5.0000e+000  5.0000e+000 -6.0330e-003
 5.100000e-008  5.0000e+000  5.0000e+000  2.1433e-003
 5.326187e-008  0.0000e+000  5.0000e+000  4.7965e+000
 5.439281e-008  0.0000e+000  5.0000e+000  4.9817e+000
 5.600000e-008  0.0000e+000  5.0000e+000  5.0128e+000
 5.850000e-008  0.0000e+000  0.0000e+000  1.3702e-001
 5.975000e-008  0.0000e+000  0.0000e+000  1.3147e-002
 6.000000e-008  3.3087e-014  0.0000e+000  1.2517e-003
 6.100000e-008  5.0000e+000  0.0000e+000  4.5158e+000
 6.150000e-008  5.0000e+000  0.0000e+000  4.9191e+000
 6.174999e-008  5.0000e+000  0.0000e+000  4.9767e+000
 6.187499e-008  5.0000e+000  0.0000e+000  4.9944e+000
 6.220486e-008  5.0000e+000  0.0000e+000  5.0004e+000
 6.287945e-008  5.0000e+000  0.0000e+000  4.9997e+000
 6.460307e-008  5.0000e+000  0.0000e+000  5.0002e+000
 6.500000e-008  5.0000e+000  0.0000e+000  5.0000e+000
 6.750000e-008  5.0000e+000  5.0000e+000  1.2438e-001
 6.875000e-008  5.0000e+000  5.0000e+000  7.9053e-003
 6.996671e-008  5.0000e+000  5.0000e+000 -6.4248e-003
 7.100000e-008  5.0000e+000  5.0000e+000  4.7861e-003
 7.350000e-008  0.0000e+000  5.0000e+000  4.8184e+000
 7.475000e-008  0.0000e+000  5.0000e+000  4.9850e+000
 7.600000e-008  0.0000e+000  5.0000e+000  5.0095e+000
 7.850000e-008  0.0000e+000  0.0000e+000  1.3684e-001
 7.975000e-008  0.0000e+000  0.0000e+000  1.3125e-002
 8.000000e-008  0.0000e+000  0.0000e+000  1.2473e-003
 8.100000e-008  5.0000e+000  0.0000e+000  4.5158e+000
 8.150000e-008  5.0000e+000  0.0000e+000  4.9191e+000
 8.175000e-008  5.0000e+000  0.0000e+000  4.9767e+000
 8.187500e-008  5.0000e+000  0.0000e+000  4.9944e+000
 8.220486e-008  5.0000e+000  0.0000e+000  5.0004e+000
 8.287945e-008  5.0000e+000  0.0000e+000  4.9997e+000
 8.460307e-008  5.0000e+000  0.0000e+000  5.0002e+000
 8.500000e-008  5.0000e+000  0.0000e+000  5.0000e+000
 8.600000e-008  5.0000e+000  5.0000e+000  4.0606e-001
 8.650000e-008  5.0000e+000  5.0000e+000  7.5475e-002
 8.675000e-008  5.0000e+000  5.0000e+000  2.4999e-002
 8.727384e-008  5.0000e+000  5.0000e+000 -1.2509e-002
 8.791056e-008  5.0000e+000  5.0000e+000  6.8679e-003
 9.065978e-008  5.0000e+000  5.0000e+000 -6.0330e-003
 9.100000e-008  5.0000e+000  5.0000e+000  2.1428e-003
 9.200000e-008  0.0000e+000  5.0000e+000  4.4370e+000
 9.250000e-008  0.0000e+000  5.0000e+000  4.8978e+000
 9.275000e-008  0.0000e+000  5.0000e+000  4.9665e+000
 9.372524e-008  0.0000e+000  5.0000e+000  5.0188e+000
 9.549999e-008  0.0000e+000  5.0000e+000  4.9852e+000
 9.600000e-008  0.0000e+000  5.0000e+000  5.0052e+000
 9.700000e-008  0.0000e+000  0.0000e+000  3.7778e-001
 9.750000e-008  0.0000e+000  0.0000e+000  7.7879e-002
 9.813172e-008  0.0000e+000  0.0000e+000  1.5197e-002
 1.000000e-007  3.3087e-014  0.0000e+000 -1.0015e-002
*

* Parsing                      0.03 seconds
* Setup                        0.01 seconds
* DC operating point           0.00 seconds
* Transient Analysis           0.05 seconds
* Overhead                     5.27 seconds
* -----------------------------------------
* Total                        5.36 seconds

* Simulation completed	with  6 Warnings

* End of T-Spice output file
