* T-Spice 13.00 Simulation	Wed Mar 13 14:04:06 2019	C:\Users\i140420\Desktop\Kamran_VLSI_7_13-3\XOR.spc
* Command line: tspice -o C:\Users\i140420\Desktop\Kamran_VLSI_7_13-3\XOR.out C:\Users\i140420\Desktop\Kamran_VLSI_7_13-3\XOR.spc 
* T-Spice Win32 13.00.20080321.01:01:33
* Warning : Node 10 is attached to only one device (M1)
* Warning : Node 11 is attached to only one device (M2)
* Warning : Node 12 is attached to only one device (M3)
* Warning : Node 13 is attached to only one device (M4)
* Warning : Node 14 is attached to only one device (M5)
*
* Warning : Disabling printout of duplicate warning messages.
*         : 	Use '.options maxmsg=0' to view all warnings,
*         : 	or increase maxmsg from 5 to view more messages.
*

*SEDIT: Alter blocks = 0

* Accuracy and Convergence options:
* numndset|dchold = 100
* 
* Timestep and Integration options:
*  relq|relchgtol = 0.0005
* 
* Model Evaluation options:
*            dcap = 2                    defnrb = 0 [sq]               defnrd = 0 [sq]
*          defnrs = 0 [sq]                 tnom = 25 [deg C]
* 
* General options:
*            temp = 25 [deg C]          threads = 4
* 
* Output options:
*           acout = 1                    ingold = 0
* 


*  Device and node counts:
*             MOSFETs - 14                MOSFET geometries - 16      
*                BJTs - 0                             JFETs - 0       
*             MESFETs - 0                            Diodes - 0       
*          Capacitors - 0                         Resistors - 0       
*           Inductors - 0                  Mutual inductors - 0       
*  Transmission lines - 0        Coupled transmission lines - 0       
*     Voltage sources - 3                   Current sources - 0       
*                VCVS - 0                              VCCS - 0       
*                CCVS - 0                              CCCS - 0       
*    V-control switch - 0                  I-control switch - 0       
*       Macro devices - 0        External C model instances - 0       
*         HDL devices - 0       
*         Subcircuits - 0              Subcircuit instances - 0       
*   Independent nodes - 15                   Boundary nodes - 4       
*         Total nodes - 19      

* *** 6 WARNING MESSAGES GENERATED DURING SETUP


*SEDIT: Alter=0
*SEDIT: Analysis types DCOP 1 ACMODEL 1 AC 0 TRANSIENT 1 TRANSFER 0 NOISE 0 

* BEGIN NON-GRAPHICAL DATA

DC ANALYSIS - temperature=25.0  
v(2) =   5.0000e+000
v(3) =   1.8476e-005
v(6) =   1.7553e-005
v(7) =   5.0000e+000
v(8) =   5.0000e+000
v(9) =   1.5000e+000
v(10) =   1.5000e+000
v(11) =   1.5000e+000
v(12) =   5.0000e+000
v(13) =   9.2381e-006
v(14) =   5.0000e+000
v(15) =   8.7767e-006
v(16) =   5.0000e+000
v(17) =   1.5000e+000
v(A) =   0.0000e+000
v(B) =   0.0000e+000
v(Vdd) =   5.0000e+000
v(Y) =   1.5000e+000
i1(v1) =   3.0000e-012
i2(v1) =  -3.0000e-012
i1(v3) =   3.0000e-012
i2(v3) =  -3.0000e-012
i1(v4) =  -1.6251e-008
i2(v4) =   1.6251e-008

* END NON-GRAPHICAL DATA

* BEGIN NON-GRAPHICAL DATA

AC SMALL-SIGNAL MODELS - temperature=25.0  

              0             1             2             3          
              M1            M2            M3            M4           
MODEL         PMOS          PMOS          PMOS          PMOS         
TYPE          PMOS          PMOS          PMOS          PMOS         
REGION        Linear        Cutoff        Linear        Cutoff       
ID               0.            0.           -5.41868n   1.335e-078 
IBS              0.            0.            0.            0.      
IBD              0.            0.            0.            0.      
VGS             -1.49998       3.49999      -4.99998       4.99999 
VDS              0.            0.          -13.92629u     18.47617u
VBS              0.            0.           -6.96314u      9.23808u
VTH           -494.91569m   -494.91569m   -494.92576m   -494.91273m
VDSAT         -782.08534m    -39.43677m     -3.32742     -39.43672m
BETA           148.19786u    165.78137u    111.51815u    165.78153u
RS               0.            0.            0.            0.      
RD               0.            0.            0.            0.      
GM               0.            0.          471.40583p   -3.84e-077 
GDS            140.56595u      0.          389.09699u   -7.22e-074 
GMB              0.            0.          559.61010p   -4.28e-077 
GBD              0.            0.            0.            0.      
GBS              0.            0.            0.            0.      
CDTOT           30.01913f     23.08781f     29.24603f     23.08790f
CGTOT           21.36326f     21.32221f     20.95417f     21.32221f
CSTOT           24.97946f     20.33723f     23.88632f     20.33715f
CBTOT           46.33643f     58.22754f     44.55652f     58.22719f
CGS             10.61193f      1.55580f     10.20926f      1.65464f
CGD             10.14511f      1.65464f     10.17653f      1.55616f
CGB            606.21627a     18.11178f    568.37857a     18.11141f
CBD             21.43317f     21.43317f     20.62044f     21.43326f
CBS             18.68259f     18.68259f     17.86997f     18.68251f

              4             5             6             7          
              M5            M6            M7            M8           
MODEL         PMOS          PMOS          PMOS          NMOS         
TYPE          PMOS          PMOS          PMOS          NMOS         
REGION        Linear        Cutoff        Linear        Linear       
ID              -5.41639n   1.268e-078      -5.41639n      0.      
IBS              0.            0.            0.            0.      
IBD              0.            0.            0.            0.      
VGS             -5.00000       4.99999      -5.00000       3.49999 
VDS            -13.92037u     17.55341u    -13.92037u      0.      
VBS             -6.96018u      8.77670u     -6.96018u      0.      
VTH           -494.92576m   -494.91288m   -494.92576m    397.96736m
VDSAT           -3.32743     -39.43673m     -3.32743       1.84232 
BETA           111.51800u    165.78152u    111.51800u    217.96755u
RS               0.            0.            0.            0.      
RD               0.            0.            0.            0.      
GM             471.20186p   -3.65e-077     471.20186p      0.      
GDS            389.09761u   -7.22e-074     389.09761u    589.38370u
GMB            559.37116p   -4.06e-077     559.37116p      0.      
GBD              0.            0.            0.            0.      
GBS              0.            0.            0.            0.      
CDTOT           28.49588f     23.08790f     28.49588f     15.02779f
CGTOT           20.95417f     21.32221f     20.95417f     10.84158f
CSTOT           24.63648f     20.33716f     24.63648f     12.52313f
CBTOT           44.55652f     58.22720f     44.55652f     23.34609f
CGS             10.20926f      1.65464f     10.20926f      5.25362f
CGD             10.17653f      1.55614f     10.17653f      5.07275f
CGB            568.37855a     18.11143f    568.37855a    515.21391a
CBD             19.87028f     21.43326f     19.87028f     10.65350f
CBS             18.62013f     18.68252f     18.62013f      9.92329f

              8             9             10            11         
              M9            M10           M11           M12          
MODEL         NMOS          NMOS          NMOS          NMOS         
TYPE          NMOS          NMOS          NMOS          NMOS         
REGION        Cutoff        Cutoff        Cutoff        Cutoff       
ID               0.            5.41018n      1.49993p      5.40789n
IBS              0.            0.            0.            0.      
IBD              0.            0.            0.            0.      
VGS             -1.49998      18.47617u      0.            0.      
VDS              0.            4.99999      18.47617u      4.99999 
VBS              0.            1.50000       1.50000       1.50000 
VTH            397.96736m    162.20619m    195.95758m    162.20619m
VDSAT           37.95008m     30.86646m     30.50741m     30.86624m
BETA           310.94021u    280.68672u    259.05138u    280.68669u
RS               0.            0.            0.            0.      
RD               0.            0.            0.            0.      
GM            -1.41e-069     124.22204n     34.88488p    124.17066n
GDS           9.153e-030       1.13388n     81.15483n      1.13341n
GMB           -7.12e-070       9.06766n      2.79269p      9.06417n
GBD              0.            0.            0.            0.      
GBS              0.            0.            0.            0.      
CDTOT           11.33240f      5.99453f     17.26164f      5.77971f
CGTOT           10.80490f      5.49171f      6.03324f      5.49175f
CSTOT           10.60219f     16.04246f     16.57734f     16.68918f
CBTOT           30.03694f     21.58887f     33.53443f     22.02081f
CGS            665.84099a      3.85330f      4.22497f      3.85333f
CGD            678.90000a    678.29868a    718.26375a    678.29895a
CGB              9.46015f    960.11166a      1.09001f    960.12628a
CBD             10.65350f      5.31603f     16.54156f      5.10121f
CBS              9.92329f     15.30204f     15.89489f     15.94879f

              12            13         
              M13           M14          
MODEL         NMOS          NMOS         
TYPE          NMOS          NMOS         
REGION        Cutoff        Cutoff       
ID               1.49994p      5.40789n
IBS              0.            0.      
IBD              0.            0.      
VGS              0.            0.      
VDS             17.55341u      4.99999 
VBS              1.50000       1.50000 
VTH            197.92458m    162.20619m
VDSAT           30.56508m     30.86624m
BETA           285.27653u    280.68669u
RS               0.            0.      
RD               0.            0.      
GM              34.92276p    124.17066n
GDS             85.42274n      1.13341n
GMB              2.81224p      9.06417n
GBD              0.            0.      
GBS              0.            0.      
CDTOT           17.79509f      6.35256f
CGTOT            5.61425f      5.49175f
CSTOT           16.57689f     17.22814f
CBTOT           33.97360f     23.13261f
CGS              3.91029f      3.85333f
CGD            712.70722a    678.29895a
CGB            991.25757a    960.12628a
CBD             17.08052f      5.67405f
CBS             15.89489f     16.48774f


* VOLTAGE SOURCES

              14            15            16         
              v1            v3            v4           
VOLTAGE          0.            0.            5.00000 
CURRENT          2.99998p      2.99998p    -16.25146n
POWER            0.            0.          -81.25732n


Element name cross-reference:
      0 : M1
      1 : M2
      2 : M3
      3 : M4
      4 : M5
      5 : M6
      6 : M7
      7 : M8
      8 : M9
      9 : M10
     10 : M11
     11 : M12
     12 : M13
     13 : M14
     14 : v1
     15 : v3
     16 : v4

* END NON-GRAPHICAL DATA

*WEDIT: .tran   1e-008   1e-007
TRANSIENT ANALYSIS
Time<s>        v(A,Gnd)<V>  v(B,Gnd)<V>  v(Y,Gnd)<V>
 0.000000e+000  0.0000e+000  0.0000e+000  1.5000e+000
 6.250000e-010  3.1250e+000  0.0000e+000  1.6428e+000
 9.375000e-010  4.6875e+000  0.0000e+000  1.6863e+000
 1.000000e-009  5.0000e+000  0.0000e+000  1.6952e+000
 1.109591e-009  5.0000e+000  0.0000e+000  1.6692e+000
 1.551675e-009  5.0000e+000  0.0000e+000  1.6603e+000
 4.957492e-009  5.0000e+000  0.0000e+000  1.6599e+000
 5.000000e-009  5.0000e+000  0.0000e+000  1.6602e+000
 5.395076e-009  5.0000e+000  1.9754e+000  2.0344e+000
 5.592614e-009  5.0000e+000  2.9631e+000  2.2143e+000
 5.682868e-009  5.0000e+000  3.4143e+000  2.2104e+000
 5.732020e-009  5.0000e+000  3.6601e+000  2.1812e+000
 5.776221e-009  5.0000e+000  3.8811e+000  2.1611e+000
 5.824423e-009  5.0000e+000  4.1221e+000  2.0968e+000
 5.885299e-009  5.0000e+000  4.4265e+000  1.9206e+000
 5.947161e-009  5.0000e+000  4.7358e+000  1.6935e+000
 5.987475e-009  5.0000e+000  4.9374e+000  1.6083e+000
 5.999999e-009  5.0000e+000  5.0000e+000  1.5832e+000
 6.020977e-009  5.0000e+000  5.0000e+000  1.5373e+000
 6.072708e-009  5.0000e+000  5.0000e+000  1.4779e+000
 6.152700e-009  5.0000e+000  5.0000e+000  1.4346e+000
 6.239189e-009  5.0000e+000  5.0000e+000  1.4463e+000
 6.376660e-009  5.0000e+000  5.0000e+000  1.4741e+000
 6.635281e-009  5.0000e+000  5.0000e+000  1.5023e+000
 7.250029e-009  5.0000e+000  5.0000e+000  1.5102e+000
 1.033345e-008  5.0000e+000  5.0000e+000  1.5072e+000
 1.100000e-008  5.0000e+000  5.0000e+000  1.5089e+000
 1.200000e-008  0.0000e+000  5.0000e+000  1.5581e+000
 1.250000e-008  0.0000e+000  5.0000e+000  1.6477e+000
 1.302785e-008  0.0000e+000  5.0000e+000  1.6429e+000
 1.454722e-008  0.0000e+000  5.0000e+000  1.6310e+000
 1.600000e-008  0.0000e+000  5.0000e+000  1.6350e+000
 1.605599e-008  0.0000e+000  4.7200e+000  1.6096e+000
 1.637099e-008  0.0000e+000  3.1450e+000  1.5600e+000
 1.652849e-008  0.0000e+000  2.3575e+000  1.5475e+000
 1.660724e-008  0.0000e+000  1.9638e+000  1.5497e+000
 1.664661e-008  0.0000e+000  1.7669e+000  1.5526e+000
 1.670915e-008  0.0000e+000  1.4542e+000  1.5655e+000
 1.674041e-008  0.0000e+000  1.2979e+000  1.5801e+000
 1.675605e-008  0.0000e+000  1.2197e+000  1.5893e+000
 1.678170e-008  0.0000e+000  1.0915e+000  1.6069e+000
 1.681273e-008  0.0000e+000  9.3630e-001  1.6309e+000
 1.684790e-008  0.0000e+000  7.6047e-001  1.6604e+000
 1.688700e-008  0.0000e+000  5.6497e-001  1.6913e+000
 1.693163e-008  0.0000e+000  3.4181e-001  1.7131e+000
 1.695395e-008  0.0000e+000  2.3022e-001  1.7175e+000
 1.699410e-008  0.0000e+000  2.9455e-002  1.7167e+000
 1.700000e-008  0.0000e+000  8.8818e-015  1.7156e+000
 1.7001275e-008  0.0000e+000  0.0000e+000  1.7168e+000
 1.7002063e-008  0.0000e+000  0.0000e+000  1.7175e+000
 1.700994e-008  0.0000e+000  0.0000e+000  1.7240e+000
 1.701388e-008  0.0000e+000  0.0000e+000  1.7268e+000
 1.703533e-008  0.0000e+000  0.0000e+000  1.7398e+000
 1.708782e-008  0.0000e+000  0.0000e+000  1.7566e+000
 1.711407e-008  0.0000e+000  0.0000e+000  1.7594e+000
 1.712719e-008  0.0000e+000  0.0000e+000  1.7602e+000
 1.719236e-008  0.0000e+000  0.0000e+000  1.7603e+000
 1.722494e-008  0.0000e+000  0.0000e+000  1.7589e+000
 1.724123e-008  0.0000e+000  0.0000e+000  1.7582e+000
 1.737135e-008  0.0000e+000  0.0000e+000  1.7536e+000
 1.786640e-008  0.0000e+000  0.0000e+000  1.7495e+000
 1.811393e-008  0.0000e+000  0.0000e+000  1.7507e+000
 2.000000e-008  0.0000e+000  0.0000e+000  1.7506e+000
 2.250000e-008  5.0000e+000  0.0000e+000  1.7546e+000
 2.375000e-008  5.0000e+000  0.0000e+000  1.7353e+000
 2.500000e-008  5.0000e+000  0.0000e+000  1.7353e+000
 2.750000e-008  5.0000e+000  5.0000e+000  1.4844e+000
 2.875000e-008  5.0000e+000  5.0000e+000  1.5009e+000
 3.100000e-008  5.0000e+000  5.0000e+000  1.5145e+000
 3.350000e-008  0.0000e+000  5.0000e+000  1.6293e+000
 3.475000e-008  0.0000e+000  5.0000e+000  1.6397e+000
 3.600000e-008  0.0000e+000  5.0000e+000  1.6330e+000
 3.613588e-008  0.0000e+000  4.3206e+000  1.5896e+000
 3.645088e-008  0.0000e+000  2.7456e+000  1.5536e+000
 3.660838e-008  0.0000e+000  1.9581e+000  1.5488e+000
 3.668713e-008  0.0000e+000  1.5643e+000  1.5591e+000
 3.672651e-008  0.0000e+000  1.3674e+000  1.5730e+000
 3.674620e-008  0.0000e+000  1.2690e+000  1.5837e+000
 3.677624e-008  0.0000e+000  1.1188e+000  1.6033e+000
 3.681027e-008  0.0000e+000  9.4862e-001  1.6293e+000
 3.684725e-008  0.0000e+000  7.6370e-001  1.6601e+000
 3.688747e-008  0.0000e+000  5.6261e-001  1.6916e+000
 3.693291e-008  0.0000e+000  3.3542e-001  1.7133e+000
 3.695563e-008  0.0000e+000  2.2183e-001  1.7174e+000
 3.699615e-008  0.0000e+000  1.9250e-002  1.7160e+000
 3.700000e-008  0.0000e+000  0.0000e+000  1.7152e+000
 3.7001031e-008  0.0000e+000  0.0000e+000  1.7161e+000
 3.7001669e-008  0.0000e+000  0.0000e+000  1.7167e+000
 3.700804e-008  0.0000e+000  0.0000e+000  1.7219e+000
 3.7011235e-008  0.0000e+000  0.0000e+000  1.7244e+000
 3.703031e-008  0.0000e+000  0.0000e+000  1.7367e+000
 3.703985e-008  0.0000e+000  0.0000e+000  1.7415e+000
 3.704462e-008  0.0000e+000  0.0000e+000  1.7435e+000
 3.707170e-008  0.0000e+000  0.0000e+000  1.7523e+000
 3.714046e-008  0.0000e+000  0.0000e+000  1.7606e+000
 3.717484e-008  0.0000e+000  0.0000e+000  1.7604e+000
 3.719203e-008  0.0000e+000  0.0000e+000  1.7599e+000
 3.729543e-008  0.0000e+000  0.0000e+000  1.7559e+000
 3.734713e-008  0.0000e+000  0.0000e+000  1.7541e+000
 3.737298e-008  0.0000e+000  0.0000e+000  1.7534e+000
 3.763149e-008  0.0000e+000  0.0000e+000  1.7503e+000
 3.776074e-008  0.0000e+000  0.0000e+000  1.7504e+000
 3.905327e-008  0.0000e+000  0.0000e+000  1.7505e+000
 4.000000e-008  0.0000e+000  0.0000e+000  1.7504e+000
 4.100000e-008  5.0000e+000  0.0000e+000  1.7829e+000
 4.150000e-008  5.0000e+000  0.0000e+000  1.7351e+000
 4.219191e-008  5.0000e+000  0.0000e+000  1.7339e+000
 4.500000e-008  5.0000e+000  0.0000e+000  1.7348e+000
 4.600000e-008  5.0000e+000  5.0000e+000  1.4593e+000
 4.650000e-008  5.0000e+000  5.0000e+000  1.4695e+000
 4.706538e-008  5.0000e+000  5.0000e+000  1.4971e+000
 5.013363e-008  5.0000e+000  5.0000e+000  1.5183e+000
 5.100000e-008  5.0000e+000  5.0000e+000  1.5053e+000
 5.350000e-008  0.0000e+000  5.0000e+000  1.6290e+000
 5.475000e-008  0.0000e+000  5.0000e+000  1.6396e+000
 5.600000e-008  0.0000e+000  5.0000e+000  1.6330e+000
 5.613588e-008  0.0000e+000  4.3206e+000  1.5896e+000
 5.645088e-008  0.0000e+000  2.7456e+000  1.5537e+000
 5.660838e-008  0.0000e+000  1.9581e+000  1.5488e+000
 5.668713e-008  0.0000e+000  1.5643e+000  1.5592e+000
 5.672651e-008  0.0000e+000  1.3674e+000  1.5731e+000
 5.674620e-008  0.0000e+000  1.2690e+000  1.5837e+000
 5.677624e-008  0.0000e+000  1.1188e+000  1.6033e+000
 5.681027e-008  0.0000e+000  9.4862e-001  1.6293e+000
 5.684726e-008  0.0000e+000  7.6370e-001  1.6601e+000
 5.688747e-008  0.0000e+000  5.6261e-001  1.6916e+000
 5.693291e-008  0.0000e+000  3.3541e-001  1.7133e+000
 5.695563e-008  0.0000e+000  2.2182e-001  1.7174e+000
 5.699615e-008  0.0000e+000  1.9242e-002  1.7160e+000
 5.7000000e-008  0.0000e+000  0.0000e+000  1.7153e+000
 5.7001031e-008  0.0000e+000  0.0000e+000  1.7161e+000
 5.7001668e-008  0.0000e+000  0.0000e+000  1.7167e+000
 5.700804e-008  0.0000e+000  0.0000e+000  1.7220e+000
 5.7011233e-008  0.0000e+000  0.0000e+000  1.7244e+000
 5.703031e-008  0.0000e+000  0.0000e+000  1.7367e+000
 5.703985e-008  0.0000e+000  0.0000e+000  1.7415e+000
 5.7044623e-008  0.0000e+000  0.0000e+000  1.7435e+000
 5.707169e-008  0.0000e+000  0.0000e+000  1.7523e+000
 5.714044e-008  0.0000e+000  0.0000e+000  1.7607e+000
 5.717482e-008  0.0000e+000  0.0000e+000  1.7604e+000
 5.719201e-008  0.0000e+000  0.0000e+000  1.7599e+000
 5.729540e-008  0.0000e+000  0.0000e+000  1.7560e+000
 5.734709e-008  0.0000e+000  0.0000e+000  1.7542e+000
 5.737294e-008  0.0000e+000  0.0000e+000  1.7534e+000
 5.763142e-008  0.0000e+000  0.0000e+000  1.7503e+000
 5.776065e-008  0.0000e+000  0.0000e+000  1.7504e+000
 5.905303e-008  0.0000e+000  0.0000e+000  1.7505e+000
 6.000000e-008  3.3087e-014  0.0000e+000  1.7504e+000
 6.100000e-008  5.0000e+000  0.0000e+000  1.7829e+000
 6.150000e-008  5.0000e+000  0.0000e+000  1.7351e+000
 6.219197e-008  5.0000e+000  0.0000e+000  1.7339e+000
 6.500000e-008  5.0000e+000  0.0000e+000  1.7348e+000
 6.750000e-008  5.0000e+000  5.0000e+000  1.4843e+000
 6.875000e-008  5.0000e+000  5.0000e+000  1.5009e+000
 7.100000e-008  5.0000e+000  5.0000e+000  1.5145e+000
 7.350000e-008  0.0000e+000  5.0000e+000  1.6293e+000
 7.475000e-008  0.0000e+000  5.0000e+000  1.6397e+000
 7.600000e-008  0.0000e+000  5.0000e+000  1.6330e+000
 7.613588e-008  0.0000e+000  4.3206e+000  1.5896e+000
 7.645088e-008  0.0000e+000  2.7456e+000  1.5537e+000
 7.660838e-008  0.0000e+000  1.9581e+000  1.5488e+000
 7.668713e-008  0.0000e+000  1.5643e+000  1.5592e+000
 7.672651e-008  0.0000e+000  1.3674e+000  1.5731e+000
 7.674620e-008  0.0000e+000  1.2690e+000  1.5837e+000
