* T-Spice 13.00 Simulation	Wed Apr 03 10:33:36 2019	C:\Users\i140420\Desktop\Kamran_VLSI_9_3-4\v0.3_L9.spc
* Command line: tspice -o C:\Users\i140420\Desktop\Kamran_VLSI_9_3-4\v0.3_L9.out C:\Users\i140420\Desktop\Kamran_VLSI_9_3-4\v0.3_L9.spc 
* T-Spice Win32 13.00.20080321.01:01:33

*SEDIT: Alter blocks = 0

* Accuracy and Convergence options:
* numndset|dchold = 100
* 
* Timestep and Integration options:
*  relq|relchgtol = 0.0005
* 
* Model Evaluation options:
*            dcap = 2                    defnrb = 0 [sq]               defnrd = 0 [sq]
*          defnrs = 0 [sq]                 tnom = 25 [deg C]
* 
* General options:
*            temp = 25 [deg C]          threads = 4
* 
* Output options:
*           acout = 1                    ingold = 0
* 


*  Device and node counts:
*             MOSFETs - 20                MOSFET geometries - 20      
*                BJTs - 0                             JFETs - 0       
*             MESFETs - 0                            Diodes - 0       
*          Capacitors - 0                         Resistors - 0       
*           Inductors - 0                  Mutual inductors - 0       
*  Transmission lines - 0        Coupled transmission lines - 0       
*     Voltage sources - 6                   Current sources - 0       
*                VCVS - 0                              VCCS - 0       
*                CCVS - 0                              CCCS - 0       
*    V-control switch - 0                  I-control switch - 0       
*       Macro devices - 0        External C model instances - 0       
*         HDL devices - 0       
*         Subcircuits - 0              Subcircuit instances - 0       
*   Independent nodes - 15                   Boundary nodes - 7       
*         Total nodes - 22      


*SEDIT: Alter=0
*SEDIT: Analysis types DCOP 1 ACMODEL 1 AC 0 TRANSIENT 1 TRANSFER 0 NOISE 0 

* BEGIN NON-GRAPHICAL DATA

DC ANALYSIS - temperature=25.0  
v(1) =   1.0061e+000
v(3) =   5.0000e+000
v(4) =   4.9661e+000
v(5) =   5.0000e+000
v(9) =   5.0000e+000
v(10) =   4.9661e+000
v(11) =   5.0000e+000
v(15) =   4.4933e+000
v(16) =   4.4933e+000
v(19) =   3.0018e-002
v(20) =   3.7989e-008
v(21) =   3.0018e-002
v(22) =   3.7989e-008
v(A0) =   0.0000e+000
v(A1) =   0.0000e+000
v(B0) =   0.0000e+000
v(B1) =   0.0000e+000
v(FnNand) =   0.0000e+000
v(Vdd) =   5.0000e+000
v(Z0) =   5.6188e-004
v(Z1) =   5.6188e-004
i1(v1) =  -0.0000e+000
i2(v1) =   0.0000e+000
i1(v2) =  -0.0000e+000
i2(v2) =   0.0000e+000
i1(v6) =  -0.0000e+000
i2(v6) =   0.0000e+000
i1(v5) =  -0.0000e+000
i2(v5) =   0.0000e+000
i1(v3) =  -0.0000e+000
i2(v3) =   0.0000e+000
i1(v4) =  -3.4892e-009
i2(v4) =   3.4892e-009

* END NON-GRAPHICAL DATA

* BEGIN NON-GRAPHICAL DATA

AC SMALL-SIGNAL MODELS - temperature=25.0  

              0             1             2             3          
              M1            M2            M3            M4           
MODEL         PMOS          PMOS          PMOS          PMOS         
TYPE          PMOS          PMOS          PMOS          PMOS         
REGION        Cutoff        Linear        Cutoff        Linear       
ID              -4.35794p     -1.27904n    -10.23514p    226.62672p
IBS              0.            0.            0.            0.      
IBD              0.            0.            0.            0.      
VGS             33.91606m     -5.00000      -1.11105u     -5.00000 
VDS             -4.96552      -6.27056u    -33.92233m      1.11105u
VBS           -472.80680m   -506.72913m   -506.72913m   -506.72802m
VTH           -375.96962m   -369.40186m   -369.40186m   -369.40186m
VDSAT          -36.68479m     -3.52095     -36.54293m     -3.52095 
BETA            76.69094u     51.02602u     76.85916u     51.02602u
RS               0.            0.            0.            0.      
RD               0.            0.            0.            0.      
GM             116.47077p    140.85960p    271.12327p    -24.95814p
GDS             24.77113f    203.97545u    121.10801p   -203.97570u
GMB             27.40769p    117.58511p     60.91538p    -20.83429p
GBD              0.            0.            0.            0.      
GBS              0.            0.            0.            0.      
CDTOT            8.82923f     40.51199f     16.81378f     28.57948f
CGTOT           16.06948f     35.78779f     15.89334f     35.78779f
CSTOT           26.52715f     37.74368f     22.59807f     39.78051f
CBTOT           38.59364f     62.89189f     42.32782f     52.99623f
CGS              8.37127f     18.00661f      8.51603f     17.28994f
CGD              1.48694f     17.28993f      1.48702f     18.00660f
CGB              6.21127f    491.24679a      5.89029f    491.24684a
CBD              7.34229f     26.05826f     15.32678f     21.11045f
CBS             25.03999f     30.27465f     21.11045f     25.32677f

              4             5             6             7          
              M5            M6            M7            M8           
MODEL         PMOS          PMOS          PMOS          PMOS         
TYPE          PMOS          PMOS          PMOS          PMOS         
REGION        Linear        Cutoff        Linear        Cutoff       
ID            -226.62672p     -4.35794p     -1.27904n    -10.23514p
IBS              0.            0.            0.            0.      
IBD              0.            0.            0.            0.      
VGS             -5.00000      33.91606m     -5.00000      -1.11105u
VDS             -1.11105u     -4.96552      -6.27056u    -33.92233m
VBS           -506.72913m   -472.80680m   -506.72913m   -506.72913m
VTH           -369.40186m   -375.96962m   -369.40186m   -369.40186m
VDSAT           -3.52095     -36.68479m     -3.52095     -36.54293m
BETA            51.02602u     76.69094u     51.02602u     76.85916u
RS               0.            0.            0.            0.      
RD               0.            0.            0.            0.      
GM              24.95814p    116.47077p    140.85960p    271.12327p
GDS            203.97570u     24.77113f    203.97545u    121.10801p
GMB             20.83429p     27.40769p    117.58511p     60.91538p
GBD              0.            0.            0.            0.      
GBS              0.            0.            0.            0.      
CDTOT           39.78051f      8.82923f     40.51199f     16.81378f
CGTOT           35.78779f     16.06948f     35.78779f     15.89334f
CSTOT           30.71646f     26.52715f     37.74368f     22.59807f
CBTOT           55.13321f     38.59364f     62.89189f     42.32782f
CGS             18.00660f      8.37127f     18.00661f      8.51603f
CGD             17.28994f      1.48694f     17.28993f      1.48702f
CGB            491.24684a      6.21127f    491.24679a      5.89029f
CBD             25.32677f      7.34229f     26.05826f     15.32678f
CBS             23.24743f     25.03999f     30.27465f     21.11045f

              8             9             10            11         
              M9            M10           M11           M12          
MODEL         PMOS          PMOS          NMOS          NMOS         
TYPE          PMOS          PMOS          NMOS          NMOS         
REGION        Linear        Linear        Cutoff        Cutoff       
ID             226.62672p   -226.62672p      1.26954n     14.82110p
IBS              0.            0.            0.            0.      
IBD              0.            0.            0.            0.      
VGS             -5.00000      -5.00000       0.          -37.98876n
VDS              1.11105u     -1.11105u      4.99999     561.83835u
VBS           -506.72802m   -506.72913m      1.00606       1.00606 
VTH           -369.40186m   -369.40186m    213.73466m    227.34613m
VDSAT           -3.52095      -3.52095      32.11680m     32.09915m
BETA            51.02602u     51.02602u    261.97492u    213.95897u
RS               0.            0.            0.            0.      
RD               0.            0.            0.            0.      
GM             -24.95814p     24.95814p     31.73322n    371.69651p
GDS           -203.97570u    203.97570u    142.31261p     26.12020n
GMB            -20.83429p     20.83429p      3.40129n     41.88603p
GBD              0.            0.            0.            0.      
GBS              0.            0.            0.            0.      
CDTOT           28.57948f     39.78051f      9.29958f     21.26063f
CGTOT           35.78779f     35.78779f     15.38453f     12.81592f
CSTOT           39.78051f     30.71646f     29.30951f     25.28939f
CBTOT           52.99623f     55.13321f     39.60699f     47.58738f
CGS             17.28994f     18.00660f     10.63899f      8.69868f
CGD             18.00660f     17.28994f      1.23672f      1.03971f
CGB            491.24684a    491.24684a      3.50882f      3.07752f
CBD             21.11045f     25.32677f      8.06279f     20.22328f
CBS             25.32677f     23.24743f     28.02420f     24.27709f

              12            13            14            15         
              M13           M14           M15           M16          
MODEL         NMOS          NMOS          NMOS          NMOS         
TYPE          NMOS          NMOS          NMOS          NMOS         
REGION        Linear        Cutoff        Cutoff        Cutoff       
ID              16.83378p   -450.16811p   -443.27606p      1.26954n
IBS              0.            0.            0.            0.      
IBD              0.            0.            0.            0.      
VGS              5.00000     -30.01818m     -5.00000       0.      
VDS             37.98876n    -30.01818m     -4.96998       4.99999 
VBS              1.00606     976.04091m     -3.99394       1.00606 
VTH            227.34765m    227.26631m    216.89976m    213.73466m
VDSAT            4.18358      32.09936m     32.19966m     32.11680m
BETA           102.05201u    213.95154u    212.99614u    261.97492u
RS               0.            0.            0.            0.      
RD               0.            0.            0.            0.      
GM              -1.86236p    -11.30756n    -11.25170n     31.73322n
GDS            443.12520u     -6.25641n    -50.19825p    142.31261p
GMB            578.97580f     -1.24100n     -1.27238n      3.40129n
GBD              0.            0.            0.            0.      
GBS              0.            0.            0.            0.      
CDTOT           37.55140f     20.48012f     24.12593f      9.29958f
CGTOT           29.62173f     12.80561f     12.91366f     15.38453f
CSTOT           22.79748f     24.11320f      7.34098f     29.30951f
CBTOT           47.00853f     45.63935f     32.61638f     39.60699f
CGS             14.81490f      1.00826f      1.00434f     10.63899f
CGD             14.15026f      8.71885f      8.73866f      1.23672f
CGB            656.56967a      3.07850f      3.17067f      3.50882f
CBD             24.27709f     19.44852f     23.10517f      8.06279f
CBS             19.44852f     23.10517f      6.33662f     28.02420f

              16            17            18            19         
              M17           M18           M19           M20          
MODEL         NMOS          NMOS          NMOS          NMOS         
TYPE          NMOS          NMOS          NMOS          NMOS         
REGION        Cutoff        Linear        Cutoff        Cutoff       
ID              14.82110p     16.83378p   -450.16811p   -443.27606p
IBS              0.            0.            0.            0.      
IBD              0.            0.            0.            0.      
VGS            -37.98876n      5.00000     -30.01818m     -5.00000 
VDS            561.83835u     37.98876n    -30.01818m     -4.96998 
VBS              1.00606       1.00606     976.04091m     -3.99394 
VTH            227.34613m    227.34765m    227.26631m    216.89976m
VDSAT           32.09915m      4.18358      32.09936m     32.19966m
BETA           213.95897u    102.05201u    213.95154u    212.99614u
RS               0.            0.            0.            0.      
RD               0.            0.            0.            0.      
GM             371.69651p     -1.86236p    -11.30756n    -11.25170n
GDS             26.12020n    443.12520u     -6.25641n    -50.19825p
GMB             41.88603p    578.97581f     -1.24100n     -1.27238n
GBD              0.            0.            0.            0.      
GBS              0.            0.            0.            0.      
CDTOT           21.26063f     37.55140f     20.48012f     24.12593f
CGTOT           12.81592f     29.62173f     12.80561f     12.91366f
CSTOT           25.28939f     22.79748f     24.11320f      7.34098f
CBTOT           47.58738f     47.00853f     45.63935f     32.61638f
CGS              8.69868f     14.81490f      1.00826f      1.00434f
CGD              1.03971f     14.15026f      8.71885f      8.73866f
CGB              3.07752f    656.56967a      3.07850f      3.17067f
CBD             20.22328f     24.27709f     19.44852f     23.10517f
CBS             24.27709f     19.44852f     23.10517f      6.33662f


* VOLTAGE SOURCES

              20            21            22            23         
              v1            v2            v6            v5           
VOLTAGE          0.            0.            0.            0.      
CURRENT          0.            0.            0.            0.      
POWER            0.            0.            0.            0.      

              24            25         
              v3            v4           
VOLTAGE          0.            5.00000 
CURRENT          0.           -3.48918n
POWER            0.          -17.44591n


Element name cross-reference:
      0 : M1
      1 : M2
      2 : M3
      3 : M4
      4 : M5
      5 : M6
      6 : M7
      7 : M8
      8 : M9
      9 : M10
     10 : M11
     11 : M12
     12 : M13
     13 : M14
     14 : M15
     15 : M16
     16 : M17
     17 : M18
     18 : M19
     19 : M20
     20 : v1
     21 : v2
     22 : v6
     23 : v5
     24 : v3
     25 : v4

* END NON-GRAPHICAL DATA

*WEDIT: .tran   1e-008   1e-007
TRANSIENT ANALYSIS
Time<s>        v(A0,Gnd)<V>  v(B0,Gnd)<V>  v(FnNand,Gnd)<V>  v(Z0,Gnd)<V>  v(A1,Gnd)<V>  v(B1,Gnd)<V>  v(Z1,Gnd)<V>
 0.000000e+000  0.0000e+000  0.0000e+000  0.0000e+000  5.6188e-004  0.0000e+000  0.0000e+000  5.6188e-004
 6.250000e-010  0.0000e+000  0.0000e+000  0.0000e+000  5.6188e-004  0.0000e+000  0.0000e+000  5.6188e-004
 1.000000e-009  0.0000e+000  0.0000e+000  0.0000e+000  5.6188e-004  0.0000e+000  0.0000e+000  5.6188e-004
 2.000000e-009  5.0000e+000  0.0000e+000  5.0000e+000  4.9779e-001  5.0000e+000  0.0000e+000  4.9779e-001
 2.500000e-009  5.0000e+000  0.0000e+000  5.0000e+000  2.2606e-001  5.0000e+000  0.0000e+000  2.2606e-001
 2.750000e-009  5.0000e+000  0.0000e+000  5.0000e+000  1.6961e-001  5.0000e+000  0.0000e+000  1.6961e-001
 3.000000e-009  5.0000e+000  0.0000e+000  5.0000e+000  1.3229e-001  5.0000e+000  0.0000e+000  1.3229e-001
 3.448307e-009  5.0000e+000  2.2415e+000  5.0000e+000  5.6203e-002  5.0000e+000  2.2415e+000  5.6203e-002
 3.672460e-009  5.0000e+000  3.3623e+000  5.0000e+000 -2.5300e-002  5.0000e+000  3.3623e+000 -2.5300e-002
 3.784537e-009  5.0000e+000  3.9227e+000  5.0000e+000 -6.2443e-002  5.0000e+000  3.9227e+000 -6.2443e-002
 3.933651e-009  5.0000e+000  4.6683e+000  5.0000e+000 -1.0937e-001  5.0000e+000  4.6683e+000 -1.0937e-001
 4.000000e-009  5.0000e+000  5.0000e+000  5.0000e+000 -1.3153e-001  5.0000e+000  5.0000e+000 -1.3153e-001
 4.115301e-009  5.0000e+000  5.0000e+000  5.0000e+000 -1.9260e-001  5.0000e+000  5.0000e+000 -1.9260e-001
 4.358213e-009  5.0000e+000  5.0000e+000  5.0000e+000 -1.9819e-001  5.0000e+000  5.0000e+000 -1.9819e-001
 4.561025e-009  5.0000e+000  5.0000e+000  5.0000e+000 -1.2947e-001  5.0000e+000  5.0000e+000 -1.2947e-001
 4.756298e-009  5.0000e+000  5.0000e+000  5.0000e+000  6.3442e-002  5.0000e+000  5.0000e+000  6.3442e-002
 4.962588e-009  5.0000e+000  5.0000e+000  5.0000e+000  3.6798e-001  5.0000e+000  5.0000e+000  3.6798e-001
 5.187267e-009  5.0000e+000  5.0000e+000  5.0000e+000  7.7467e-001  5.0000e+000  5.0000e+000  7.7467e-001
 5.399021e-009  5.0000e+000  5.0000e+000  5.0000e+000  1.2412e+000  5.0000e+000  5.0000e+000  1.2412e+000
 5.584869e-009  5.0000e+000  5.0000e+000  5.0000e+000  1.6874e+000  5.0000e+000  5.0000e+000  1.6874e+000
 5.750901e-009  5.0000e+000  5.0000e+000  5.0000e+000  2.0756e+000  5.0000e+000  5.0000e+000  2.0756e+000
 5.928471e-009  5.0000e+000  5.0000e+000  5.0000e+000  2.4555e+000  5.0000e+000  5.0000e+000  2.4555e+000
 6.139707e-009  5.0000e+000  5.0000e+000  5.0000e+000  2.8560e+000  5.0000e+000  5.0000e+000  2.8560e+000
 6.408783e-009  5.0000e+000  5.0000e+000  5.0000e+000  3.2894e+000  5.0000e+000  5.0000e+000  3.2894e+000
 6.770030e-009  5.0000e+000  5.0000e+000  5.0000e+000  3.7575e+000  5.0000e+000  5.0000e+000  3.7575e+000
 7.284711e-009  5.0000e+000  5.0000e+000  5.0000e+000  4.2779e+000  5.0000e+000  5.0000e+000  4.2779e+000
 8.026782e-009  5.0000e+000  5.0000e+000  5.0000e+000  4.7321e+000  5.0000e+000  5.0000e+000  4.7321e+000
 8.397817e-009  5.0000e+000  5.0000e+000  5.0000e+000  4.8365e+000  5.0000e+000  5.0000e+000  4.8365e+000
 9.667976e-009  5.0000e+000  5.0000e+000  5.0000e+000  4.9809e+000  5.0000e+000  5.0000e+000  4.9809e+000
 1.341914e-008  5.0000e+000  5.0000e+000  5.0000e+000  5.0016e+000  5.0000e+000  5.0000e+000  5.0016e+000
 2.200000e-008  5.0000e+000  5.0000e+000  5.0000e+000  4.9972e+000  5.0000e+000  5.0000e+000  4.9972e+000
 2.299999e-008  0.0000e+000  5.0000e+000  5.0000e+000  3.2019e+000  0.0000e+000  5.0000e+000  3.2019e+000
 2.350000e-008  0.0000e+000  5.0000e+000  5.0000e+000  1.8557e+000  0.0000e+000  5.0000e+000  1.8557e+000
 2.374999e-008  0.0000e+000  5.0000e+000  5.0000e+000  1.3246e+000  0.0000e+000  5.0000e+000  1.3246e+000
 2.387499e-008  0.0000e+000  5.0000e+000  5.0000e+000  1.0809e+000  0.0000e+000  5.0000e+000  1.0809e+000
 2.400000e-008  0.0000e+000  5.0000e+000  5.0000e+000  8.7898e-001  0.0000e+000  5.0000e+000  8.7898e-001
 2.416721e-008  0.0000e+000  4.1639e+000  5.0000e+000  6.6867e-001  0.0000e+000  4.1639e+000  6.6867e-001
 2.448221e-008  0.0000e+000  2.5889e+000  5.0000e+000  4.3427e-001  0.0000e+000  2.5889e+000  4.3427e-001
 2.474454e-008  0.0000e+000  1.2773e+000  5.0000e+000  2.7825e-001  0.0000e+000  1.2773e+000  2.7825e-001
 2.492987e-008  0.0000e+000  3.5063e-001  5.0000e+000  1.9911e-001  0.0000e+000  3.5063e-001  1.9911e-001
 2.500000e-008  0.0000e+000  0.0000e+000  5.0000e+000  1.7146e-001  0.0000e+000  0.0000e+000  1.7146e-001
 2.507118e-008  0.0000e+000  0.0000e+000  5.0000e+000  1.6593e-001  0.0000e+000  0.0000e+000  1.6593e-001
 2.578298e-008  0.0000e+000  0.0000e+000  5.0000e+000  1.0364e-001  0.0000e+000  0.0000e+000  1.0364e-001
 2.807098e-008  0.0000e+000  0.0000e+000  5.0000e+000  3.0764e-003  0.0000e+000  0.0000e+000  3.0764e-003
 2.921498e-008  0.0000e+000  0.0000e+000  5.0000e+000  4.9285e-003  0.0000e+000  0.0000e+000  4.9285e-003
 2.978698e-008  0.0000e+000  0.0000e+000  5.0000e+000  5.5356e-003  0.0000e+000  0.0000e+000  5.5356e-003
 3.370870e-008  0.0000e+000  0.0000e+000  5.0000e+000  1.1076e-003  0.0000e+000  0.0000e+000  1.1076e-003
 4.100000e-008  0.0000e+000  0.0000e+000  5.0000e+000  1.4083e-003  0.0000e+000  0.0000e+000  1.4083e-003
 4.300000e-008  5.0000e+000  0.0000e+000  5.0000e+000  6.0689e-002  5.0000e+000  0.0000e+000  6.0689e-002
 4.400000e-008  5.0000e+000  5.0000e+000  5.0000e+000 -1.6237e-003  5.0000e+000  5.0000e+000 -1.6237e-003
 4.449999e-008  5.0000e+000  5.0000e+000  5.0000e+000  2.3270e-001  5.0000e+000  5.0000e+000  2.3270e-001
 4.472924e-008  5.0000e+000  5.0000e+000  5.0000e+000  4.1368e-001  5.0000e+000  5.0000e+000  4.1368e-001
 4.494623e-008  5.0000e+000  5.0000e+000  5.0000e+000  7.0775e-001  5.0000e+000  5.0000e+000  7.0775e-001
 4.518673e-008  5.0000e+000  5.0000e+000  5.0000e+000  1.1661e+000  5.0000e+000  5.0000e+000  1.1661e+000
 4.540005e-008  5.0000e+000  5.0000e+000  5.0000e+000  1.6488e+000  5.0000e+000  5.0000e+000  1.6488e+000
