* T-Spice 13.00 Simulation	Fri Apr 05 22:55:50 2019	C:\Users\ACG\Desktop\Kamran_VLSI_9_3-4\v0.5_L9.spc
* Command line: tspice -o C:\Users\ACG\Desktop\Kamran_VLSI_9_3-4\v0.5_L9.out C:\Users\ACG\Desktop\Kamran_VLSI_9_3-4\v0.5_L9.spc 
* T-Spice Win32 13.00.20080321.01:01:33

*SEDIT: Alter blocks = 0

* Accuracy and Convergence options:
* numndset|dchold = 100
* 
* Timestep and Integration options:
*  relq|relchgtol = 0.0005
* 
* Model Evaluation options:
*            dcap = 2                    defnrb = 0 [sq]               defnrd = 0 [sq]
*          defnrs = 0 [sq]                 tnom = 25 [deg C]
* 
* General options:
*            temp = 25 [deg C]          threads = 2
* 
* Output options:
*           acout = 1                    ingold = 0
* 


*  Device and node counts:
*             MOSFETs - 30                MOSFET geometries - 20      
*                BJTs - 0                             JFETs - 0       
*             MESFETs - 0                            Diodes - 0       
*          Capacitors - 0                         Resistors - 0       
*           Inductors - 0                  Mutual inductors - 0       
*  Transmission lines - 0        Coupled transmission lines - 0       
*     Voltage sources - 5                   Current sources - 0       
*                VCVS - 0                              VCCS - 0       
*                CCVS - 0                              CCCS - 0       
*    V-control switch - 0                  I-control switch - 0       
*       Macro devices - 0        External C model instances - 0       
*         HDL devices - 0       
*         Subcircuits - 0              Subcircuit instances - 0       
*   Independent nodes - 22                   Boundary nodes - 6       
*         Total nodes - 28      


*SEDIT: Alter=0
*SEDIT: Analysis types DCOP 0 ACMODEL 0 AC 0 TRANSIENT 1 TRANSFER 0 NOISE 0 

*WEDIT: .tran   1e-008   1e-007
TRANSIENT ANALYSIS
Time<s>        v(A0,Gnd)<V>  v(B0,Gnd)<V>  v(FnNor,Gnd)<V>  v(Z0,Gnd)<V>
 0.000000e+000  0.0000e+000  0.0000e+000  0.0000e+000  2.9767e-002
 6.250000e-010  0.0000e+000  0.0000e+000  0.0000e+000  2.9767e-002
 1.000000e-009  0.0000e+000  0.0000e+000  0.0000e+000  2.9767e-002
 2.000000e-009  5.0000e+000  0.0000e+000  5.0000e+000  2.0325e+000
 2.500000e-009  5.0000e+000  0.0000e+000  5.0000e+000  1.9779e+000
 2.750000e-009  5.0000e+000  0.0000e+000  5.0000e+000  1.9520e+000
 3.000000e-009  5.0000e+000  0.0000e+000  5.0000e+000  1.9282e+000
 3.380226e-009  5.0000e+000  1.9011e+000  5.0000e+000  1.9196e+000
 3.570339e-009  5.0000e+000  2.8517e+000  5.0000e+000  1.8817e+000
 3.665396e-009  5.0000e+000  3.3270e+000  5.0000e+000  1.8617e+000
 3.790256e-009  5.0000e+000  3.9513e+000  5.0000e+000  1.8360e+000
 3.948217e-009  5.0000e+000  4.7411e+000  5.0000e+000  1.8187e+000
 4.000000e-009  5.0000e+000  5.0000e+000  5.0000e+000  1.8169e+000
 4.102632e-009  5.0000e+000  5.0000e+000  5.0000e+000  1.7867e+000
 4.343935e-009  5.0000e+000  5.0000e+000  5.0000e+000  1.7459e+000
 4.464587e-009  5.0000e+000  5.0000e+000  5.0000e+000  1.7279e+000
 4.614520e-009  5.0000e+000  5.0000e+000  5.0000e+000  1.7079e+000
 4.784663e-009  5.0000e+000  5.0000e+000  5.0000e+000  1.6877e+000
 4.969972e-009  5.0000e+000  5.0000e+000  5.0000e+000  1.6681e+000
 5.189327e-009  5.0000e+000  5.0000e+000  5.0000e+000  1.6480e+000
 5.464437e-009  5.0000e+000  5.0000e+000  5.0000e+000  1.6266e+000
 5.830857e-009  5.0000e+000  5.0000e+000  5.0000e+000  1.6031e+000
 6.361654e-009  5.0000e+000  5.0000e+000  5.0000e+000  1.5761e+000
 7.250985e-009  5.0000e+000  5.0000e+000  5.0000e+000  1.5403e+000
 9.217235e-009  5.0000e+000  5.0000e+000  5.0000e+000  1.4772e+000
 1.408998e-008  5.0000e+000  5.0000e+000  5.0000e+000  1.3663e+000
 2.299269e-008  5.0000e+000  5.0000e+000  5.0000e+000  1.2518e+000
 3.200000e-008  5.0000e+000  5.0000e+000  5.0000e+000  1.1902e+000
 3.300000e-008  0.0000e+000  5.0000e+000  5.0000e+000  1.2302e+000
 3.350000e-008  0.0000e+000  5.0000e+000  5.0000e+000  1.2678e+000
 3.375000e-008  0.0000e+000  5.0000e+000  5.0000e+000  1.2788e+000
 3.455806e-008  0.0000e+000  5.0000e+000  5.0000e+000  1.3027e+000
 3.558112e-008  0.0000e+000  5.0000e+000  5.0000e+000  1.3173e+000
 3.811758e-008  0.0000e+000  5.0000e+000  5.0000e+000  1.3320e+000
 4.400000e-008  0.0000e+000  5.0000e+000  5.0000e+000  1.3083e+000
 4.500000e-008  0.0000e+000  0.0000e+000  5.0000e+000  1.3116e+000
 4.550000e-008  0.0000e+000  0.0000e+000  5.0000e+000  1.5129e+000
 4.575000e-008  0.0000e+000  0.0000e+000  5.0000e+000  1.6344e+000
 4.637532e-008  0.0000e+000  0.0000e+000  5.0000e+000  1.9636e+000
 4.711454e-008  0.0000e+000  0.0000e+000  5.0000e+000  2.3376e+000
 4.799038e-008  0.0000e+000  0.0000e+000  5.0000e+000  2.6838e+000
 4.900803e-008  0.0000e+000  0.0000e+000  5.0000e+000  3.0075e+000
 5.037841e-008  0.0000e+000  0.0000e+000  5.0000e+000  3.3270e+000
 5.242734e-008  0.0000e+000  0.0000e+000  5.0000e+000  3.6283e+000
 5.580146e-008  0.0000e+000  0.0000e+000  5.0000e+000  3.8834e+000
 6.100000e-008  0.0000e+000  0.0000e+000  5.0000e+000  4.0388e+000
 6.350000e-008  5.0000e+000  0.0000e+000  5.0000e+000  3.0946e+000
 6.475000e-008  5.0000e+000  0.0000e+000  5.0000e+000  2.7245e+000
 6.537500e-008  5.0000e+000  0.0000e+000  5.0000e+000  2.5587e+000
 6.617556e-008  5.0000e+000  0.0000e+000  5.0000e+000  2.3852e+000
 6.738436e-008  5.0000e+000  0.0000e+000  5.0000e+000  2.1785e+000
 6.934813e-008  5.0000e+000  0.0000e+000  5.0000e+000  1.9440e+000
 7.233373e-008  5.0000e+000  0.0000e+000  5.0000e+000  1.7205e+000
 7.300000e-008  5.0000e+000  0.0000e+000  5.0000e+000  1.6855e+000
 7.533664e-008  5.0000e+000  5.0000e+000  5.0000e+000  1.4972e+000
 7.650496e-008  5.0000e+000  5.0000e+000  5.0000e+000  1.4261e+000
 7.708912e-008  5.0000e+000  5.0000e+000  5.0000e+000  1.3985e+000
 7.773716e-008  5.0000e+000  5.0000e+000  5.0000e+000  1.3809e+000
 7.888040e-008  5.0000e+000  5.0000e+000  5.0000e+000  1.3580e+000
 8.186834e-008  5.0000e+000  5.0000e+000  5.0000e+000  1.3115e+000
 9.018519e-008  5.0000e+000  5.0000e+000  5.0000e+000  1.2220e+000
 9.200000e-008  5.0000e+000  5.0000e+000  5.0000e+000  1.2091e+000
 9.300000e-008  6.5725e-014  5.0000e+000  0.0000e+000  5.1737e-001
 9.350000e-008  0.0000e+000  5.0000e+000  0.0000e+000  6.6045e-001
 9.375000e-008  0.0000e+000  5.0000e+000  0.0000e+000  7.0028e-001
 9.456121e-008  0.0000e+000  5.0000e+000  0.0000e+000  7.7395e-001
 9.560219e-008  0.0000e+000  5.0000e+000  0.0000e+000  8.1525e-001
 9.735304e-008  0.0000e+000  5.0000e+000  0.0000e+000  8.7932e-001
 1.000000e-007  0.0000e+000  5.0000e+000  0.0000e+000  9.2213e-001
*

* Parsing                      0.01 seconds
* Setup                        0.01 seconds
* DC operating point           0.01 seconds
* Transient Analysis           0.06 seconds
* Overhead                     1.84 seconds
* -----------------------------------------
* Total                        1.95 seconds

* Simulation completed

* End of T-Spice output file
